Time [s],Packet ID,MOSI,MISO
0.0000000000,0,The initial (idle) state of the CLK line does not match the settings,
0.0000145600,2,0x1000,
0.0000161000,2,0x2A80,
0.0000176200,2,0x2A80,
0.0000191600,2,0x2A80,
0.0000207000,2,0x2A80,
0.0000222400,2,0x2A80,
0.0000237800,2,0x2A80,
0.0000253000,2,0x2A80,
0.0000278000,3,0x0000,
0.0000293400,3,0xD500,
0.0000308800,3,0xD500,
0.0000324200,3,0xD500,
0.0000339400,3,0xD500,
0.0000354800,3,0xD500,
0.0000370200,3,0xD500,
0.0000385600,3,0xD500,
0.0000409600,4,0x1FF8,
0.0000425000,4,0x8078,
0.0000440200,4,0x8078,
0.0000455600,4,0x8078,
0.0000471000,4,0x8078,
0.0000486400,4,0x8078,
0.0000501800,4,0x8078,
0.0000517000,4,0x8078,
0.0000541000,5,0xE000,
0.0000556400,5,0x2A80,
0.0000571800,5,0x2A80,
0.0000587200,5,0x2A80,
0.0000602600,5,0x2A80,
0.0000617800,5,0x2A80,
0.0000633200,5,0x2A80,
0.0000648600,5,0x2A80,
0.0000672600,6,0x0000,
0.0000688000,6,0xAA80,
0.0000703400,6,0xAA80,
0.0000718600,6,0xAA80,
0.0000734000,6,0xAA80,
0.0000749400,6,0xAA80,
0.0000764800,6,0xAA80,
0.0000780200,6,0xAA80,
0.0000804200,7,0x000F,
0.0000819400,7,0xFF8F,
0.0000834800,7,0xFF8F,
0.0000850200,7,0xFF8F,
0.0000865600,7,0xFF8F,
0.0000881000,7,0xFF8F,
0.0000896200,7,0xFF8F,
0.0000911600,7,0xFF8F,
0.0000935600,8,0x000F,
0.0000951000,8,0xFF8F,
0.0000966400,8,0xFF8F,
0.0000981800,8,0xFF8F,
0.0000997000,8,0xFF8F,
0.0001012400,8,0xFF8F,
0.0001027800,8,0xFF8F,
0.0001043200,8,0xFF8F,
0.0001067200,9,0x000F,
0.0001082600,9,0xFF8F,
0.0001097800,9,0xFF8F,
0.0001113200,9,0xFF8F,
0.0001128600,9,0xFF8F,
0.0001144000,9,0xFF8F,
0.0001159400,9,0xFF8F,
0.0001174600,9,0xFF8F,
0.0001198600,10,0x000F,
0.0001214000,10,0xFF8F,
0.0001229400,10,0xFF8F,
0.0001244800,10,0xFF8F,
0.0001260200,10,0xFF8F,
0.0001275600,10,0xFF8F,
0.0001290800,10,0xFF8F,
0.0001306200,10,0xFF8F,
0.0001330200,11,0x000F,
0.0001345600,11,0xFF8F,
0.0001361000,11,0xFF8F,
0.0001376400,11,0xFF8F,
0.0001391600,11,0xFF8F,
0.0001407000,11,0xFF8F,
0.0001422400,11,0xFF8F,
0.0001437800,11,0xFF8F,
0.0001461800,12,0x000F,
0.0001477200,12,0xFF8F,
0.0001492400,12,0xFF8F,
0.0001507800,12,0xFF8F,
0.0001523200,12,0xFF8F,
0.0001538600,12,0xFF8F,
0.0001553800,12,0xFF8F,
0.0001569200,12,0xFF8F,
0.0001593200,13,0x000F,
0.0001608600,13,0xFF8F,
0.0001624000,13,0xFF8F,
0.0001639400,13,0xFF8F,
0.0001654800,13,0xFF8F,
0.0001670000,13,0xFF8F,
0.0001685400,13,0xFF8F,
0.0001700800,13,0xFF8F,
0.0001724800,14,0x000F,
0.0001740200,14,0xFF8F,
0.0001755600,14,0xFF8F,
0.0001770800,14,0xFF8F,
0.0001786200,14,0xFF8F,
0.0001801600,14,0xFF8F,
0.0001817000,14,0xFF8F,
0.0001832400,14,0xFF8F,
0.0001856400,15,0x000F,
0.0001871600,15,0xFF8F,
0.0001887000,15,0xFF8F,
0.0001902400,15,0xFF8F,
0.0001917800,15,0xFF8F,
0.0001933200,15,0xFF8F,
0.0001948400,15,0xFF8F,
0.0001963800,15,0xFF8F,
0.0001987800,16,0x000F,
0.0002003200,16,0xFF8F,
0.0002018600,16,0xFF8F,
0.0002034000,16,0xFF8F,
0.0002049200,16,0xFF8F,
0.0002064600,16,0xFF8F,
0.0002080000,16,0xFF8F,
0.0002095400,16,0xFF8F,
0.0002119400,17,0x000F,
0.0002134800,17,0xFF8F,
0.0002150000,17,0xFF8F,
0.0002165400,17,0xFF8F,
0.0002180800,17,0xFF8F,
0.0002196200,17,0xFF8F,
0.0002211600,17,0xFF8F,
0.0002226800,17,0xFF8F,
0.0002250800,18,0x000F,
0.0002266200,18,0xFF8F,
0.0002281600,18,0xFF8F,
0.0002297000,18,0xFF8F,
0.0002312400,18,0xFF8F,
0.0002327600,18,0xFF8F,
0.0002343000,18,0xFF8F,
0.0002358400,18,0xFF8F,
0.0002382400,19,0x000F,
0.0002397800,19,0xFF8F,
0.0002413200,19,0xFF8F,
0.0002428400,19,0xFF8F,
0.0002443800,19,0xFF8F,
0.0002459200,19,0xFF8F,
0.0002474600,19,0xFF8F,
0.0002490000,19,0xFF8F,
0.0002514000,20,0x000F,
0.0002529200,20,0xFF8F,
0.0002544600,20,0xFF8F,
0.0002560000,20,0xFF8F,
0.0002575400,20,0xFF8F,
0.0002590800,20,0xFF8F,
0.0002606000,20,0xFF8F,
0.0002621400,20,0xFF8F,
0.0002645400,21,0x000F,
0.0002660800,21,0xFF8F,
0.0002676200,21,0xFF8F,
0.0002691600,21,0xFF8F,
0.0002706800,21,0xFF8F,
0.0002722200,21,0xFF8F,
0.0002737600,21,0xFF8F,
0.0002753000,21,0xFF8F,
0.0002777000,22,0x000F,
0.0002792400,22,0xFF8F,
0.0002807600,22,0xFF8F,
0.0002823000,22,0xFF8F,
0.0002838400,22,0xFF8F,
0.0002853800,22,0xFF8F,
0.0002869200,22,0xFF8F,
0.0002884400,22,0xFF8F,
0.0002908400,23,0x0003,
0.0002923800,23,0xFFE3,
0.0002939200,23,0xFFE3,
0.0002954600,23,0xFFE3,
0.0002970000,23,0xFFE3,
0.0002985200,23,0xFFE3,
0.0003000600,23,0xFFE3,
0.0003016000,23,0xFFE3,
0.0003042000,24,0x000F,
0.0003057200,24,0xFF8F,
0.0003072600,24,0xFF8F,
0.0003088000,24,0xFF8F,
0.0003103400,24,0xFF8F,
0.0003118800,24,0xFF8F,
0.0003134000,24,0xFF8F,
0.0003149400,24,0xFF8F,
0.0003173400,25,0x000F,
0.0003188800,25,0xFF8F,
0.0003204200,25,0xFF8F,
0.0003219600,25,0xFF8F,
0.0003234800,25,0xFF8F,
0.0003250200,25,0xFF8F,
0.0003265600,25,0xFF8F,
0.0003281000,25,0xFF8F,
0.0003305000,26,0x000F,
0.0003320400,26,0xFF8F,
0.0003335600,26,0xFF8F,
0.0003351000,26,0xFF8F,
0.0003366400,26,0xFF8F,
0.0003381800,26,0xFF8F,
0.0003397200,26,0xFF8F,
0.0003412400,26,0xFF8F,
0.0003436400,27,0x000F,
0.0003451800,27,0xFF8F,
0.0003467200,27,0xFF8F,
0.0003482600,27,0xFF8F,
0.0003498000,27,0xFF8F,
0.0003513200,27,0xFF8F,
0.0003528600,27,0xFF8F,
0.0003544000,27,0xFF8F,
0.0003568000,28,0x000F,
0.0003583400,28,0xFF8F,
0.0003598800,28,0xFF8F,
0.0003614000,28,0xFF8F,
0.0003629400,28,0xFF8F,
0.0003644800,28,0xFF8F,
0.0003660200,28,0xFF8F,
0.0003675600,28,0xFF8F,
0.0003699600,29,0x000F,
0.0003714800,29,0xFF8F,
0.0003730200,29,0xFF8F,
0.0003745600,29,0xFF8F,
0.0003761000,29,0xFF8F,
0.0003776400,29,0xFF8F,
0.0003791600,29,0xFF8F,
0.0003807000,29,0xFF8F,
0.0003831000,30,0x000F,
0.0003846400,30,0xFF8F,
0.0003861800,30,0xFF8F,
0.0003877200,30,0xFF8F,
0.0003892600,30,0xFF8F,
0.0003907800,30,0xFF8F,
0.0003923200,30,0xFF8F,
0.0003938600,30,0xFF8F,
0.0003962600,31,0x000F,
0.0003978000,31,0xFF8F,
0.0003993400,31,0xFF8F,
0.0004008600,31,0xFF8F,
0.0004024000,31,0xFF8F,
0.0004039400,31,0xFF8F,
0.0004054800,31,0xFF8F,
0.0004070200,31,0xFF8F,
0.0004094200,32,0x000F,
0.0004109400,32,0xFF8F,
0.0004124800,32,0xFF8F,
0.0004140200,32,0xFF8F,
0.0004155600,32,0xFF8F,
0.0004170800,32,0xFF8F,
0.0004186200,32,0xFF8F,
0.0004201600,32,0xFF8F,
0.0004225600,33,0x000F,
0.0004241000,33,0xFF8F,
0.0004256400,33,0xFF8F,
0.0004271800,33,0xFF8F,
0.0004287000,33,0xFF8F,
0.0004302400,33,0xFF8F,
0.0004317800,33,0xFF8F,
0.0004333200,33,0xFF8F,
0.0004357200,34,0x000F,
0.0004372600,34,0xFF8F,
0.0004387800,34,0xFF8F,
0.0004403200,34,0xFF8F,
0.0004418600,34,0xFF8F,
0.0004434000,34,0xFF8F,
0.0004449400,34,0xFF8F,
0.0004464600,34,0xFF8F,
0.0004488600,35,0x000F,
0.0004504000,35,0xFF8F,
0.0004519400,35,0xFF8F,
0.0004534800,35,0xFF8F,
0.0004550200,35,0xFF8F,
0.0004565400,35,0xFF8F,
0.0004580800,35,0xFF8F,
0.0004596200,35,0xFF8F,
0.0004620200,36,0x000F,
0.0004635600,36,0xFF8F,
0.0004651000,36,0xFF8F,
0.0004666200,36,0xFF8F,
0.0004681600,36,0xFF8F,
0.0004697000,36,0xFF8F,
0.0004712400,36,0xFF8F,
0.0004727800,36,0xFF8F,
0.0004751800,37,0x000F,
0.0004767000,37,0xFF8F,
0.0004782400,37,0xFF8F,
0.0004797800,37,0xFF8F,
0.0004813200,37,0xFF8F,
0.0004828600,37,0xFF8F,
0.0004843800,37,0xFF8F,
0.0004859200,37,0xFF8F,
0.0004883200,38,0x000F,
0.0004898600,38,0xFF8F,
0.0004914000,38,0xFF8F,
0.0004929400,38,0xFF8F,
0.0004944600,38,0xFF8F,
0.0004960000,38,0xFF8F,
0.0004975400,38,0xFF8F,
0.0004990800,38,0xFF8F,
0.0005014800,39,0x0003,
0.0005030200,39,0xFFE3,
0.0005045400,39,0xFFE3,
0.0005060800,39,0xFFE3,
0.0005076200,39,0xFFE3,
0.0005091600,39,0xFFE3,
0.0005107000,39,0xFFE3,
0.0005122200,39,0xFFE3,
0.0005148200,40,0x0000,
0.0005163600,40,0x0000,
0.0005179000,40,0x0000,
0.0005194200,40,0x0000,
0.0005209600,40,0x0000,
0.0005225000,40,0x0000,
0.0005240400,40,0x0000,
0.0005255800,40,0x0000,
0.0005279800,41,0x0000,
0.0005295000,41,0x0000,
0.0005310400,41,0x0000,
0.0005325800,41,0x0000,
0.0005341200,41,0x0000,
0.0005356600,41,0x0000,
0.0005371800,41,0x0000,
0.0005387200,41,0x0000,
0.0005411200,42,0x0000,
0.0005426600,42,0x0000,
0.0005442000,42,0x0000,
0.0005457400,42,0x0000,
0.0005472600,42,0x0000,
0.0005488000,42,0x0000,
0.0005503400,42,0x0000,
0.0005518800,42,0x0000,
0.0005542800,43,0x0000,
0.0005558200,43,0x0000,
0.0005573400,43,0x0000,
0.0005588800,43,0x0000,
0.0005604200,43,0x0000,
0.0005619600,43,0x0000,
0.0005635000,43,0x0000,
0.0005650200,43,0x0000,
0.0005674200,44,0x0000,
0.0005689600,44,0x0000,
0.0005705000,44,0x0000,
0.0005720400,44,0x0000,
0.0005735800,44,0x0000,
0.0005751000,44,0x0000,
0.0005766400,44,0x0000,
0.0005781800,44,0x0000,
0.0005805800,45,0x0000,
0.0005821200,45,0x0000,
0.0005836600,45,0x0000,
0.0005851800,45,0x0000,
0.0005867200,45,0x0000,
0.0005882600,45,0x0000,
0.0005898000,45,0x0000,
0.0005913400,45,0x0000,
0.0005937400,46,0x0000,
0.0005952600,46,0x0000,
0.0005968000,46,0x0000,
0.0005983400,46,0x0000,
0.0005998800,46,0x0000,
0.0006014200,46,0x0000,
0.0006029400,46,0x0000,
0.0006044800,46,0x0000,
0.0006068800,47,0x0000,
0.0006084200,47,0x0000,
0.0006099600,47,0x0000,
0.0006115000,47,0x0000,
0.0006130200,47,0x0000,
0.0006145600,47,0x0000,
0.0006161000,47,0x0000,
0.0006176400,47,0x0000,
0.0006200400,48,0x0000,
0.0006215800,48,0x0000,
0.0006231000,48,0x0000,
0.0006246400,48,0x0000,
0.0006261800,48,0x0000,
0.0006277200,48,0x0000,
0.0006292600,48,0x0000,
0.0006307800,48,0x0000,
0.0006331800,49,0x0000,
0.0006347200,49,0x0000,
0.0006362600,49,0x0000,
0.0006378000,49,0x0000,
0.0006393400,49,0x0000,
0.0006408600,49,0x0000,
0.0006424000,49,0x0000,
0.0006439400,49,0x0000,
0.0006463400,50,0x0000,
0.0006478800,50,0x0000,
0.0006494200,50,0x0000,
0.0006509600,50,0x0000,
0.0006524800,50,0x0000,
0.0006540200,50,0x0000,
0.0006555600,50,0x0000,
0.0006571000,50,0x0000,
0.0006595000,51,0x0000,
0.0006610200,51,0x0000,
0.0006625600,51,0x0000,
0.0006641000,51,0x0000,
0.0006656400,51,0x0000,
0.0006671800,51,0x0000,
0.0006687200,51,0x0000,
0.0006702400,51,0x0000,
0.0006726400,52,0x0000,
0.0006741800,52,0x0000,
0.0006757200,52,0x0000,
0.0006772600,52,0x0000,
0.0006787800,52,0x0000,
0.0006803200,52,0x0000,
0.0006818600,52,0x0000,
0.0006834000,52,0x0000,
0.0006858000,53,0x0000,
0.0006873400,53,0x0000,
0.0006888800,53,0x0000,
0.0006904000,53,0x0000,
0.0006919400,53,0x0000,
0.0006934800,53,0x0000,
0.0006950200,53,0x0000,
0.0006965600,53,0x0000,
0.0006989600,54,0x0000,
0.0007004800,54,0x0000,
0.0007020200,54,0x0000,
0.0007035600,54,0x0000,
0.0007051000,54,0x0000,
0.0007066400,54,0x0000,
0.0007081600,54,0x0000,
0.0007097000,54,0x0000,
0.0007121000,55,0x0003,
0.0007136400,55,0xFFE3,
0.0007151800,55,0xFFE3,
0.0007167200,55,0xFFE3,
0.0007182400,55,0xFFE3,
0.0007197800,55,0xFFE3,
0.0007213200,55,0xFFE3,
0.0007228600,55,0xFFE3,
0.0007254400,56,0x0000,
0.0007269800,56,0x0000,
0.0007285200,56,0x0000,
0.0007300600,56,0x0000,
0.0007316000,56,0x0000,
0.0007331200,56,0x0000,
0.0007346600,56,0x0000,
0.0007362000,56,0x0000,
0.0007386000,57,0x0000,
0.0007401400,57,0x0000,
0.0007416800,57,0x0000,
0.0007432000,57,0x0000,
0.0007447400,57,0x0000,
0.0007462800,57,0x0000,
0.0007478200,57,0x0000,
0.0007493600,57,0x0000,
0.0007517600,58,0x0000,
0.0007532800,58,0x0000,
0.0007548200,58,0x0000,
0.0007563600,58,0x0000,
0.0007579000,58,0x0000,
0.0007594400,58,0x0000,
0.0007609600,58,0x0000,
0.0007625000,58,0x0000,
0.0007649000,59,0x0000,
0.0007664400,59,0x0000,
0.0007679800,59,0x0000,
0.0007695200,59,0x0000,
0.0007710400,59,0x0000,
0.0007725800,59,0x0000,
0.0007741200,59,0x0000,
0.0007756600,59,0x0000,
0.0007780600,60,0x0000,
0.0007796000,60,0x0000,
0.0007811200,60,0x0000,
0.0007826600,60,0x0000,
0.0007842000,60,0x0000,
0.0007857400,60,0x0000,
0.0007872800,60,0x0000,
0.0007888000,60,0x0000,
0.0007912000,61,0x0000,
0.0007927400,61,0x0000,
0.0007942800,61,0x0000,
0.0007958200,61,0x0000,
0.0007973600,61,0x0000,
0.0007988800,61,0x0000,
0.0008004200,61,0x0000,
0.0008019600,61,0x0000,
0.0008043600,62,0x0000,
0.0008059000,62,0x0000,
0.0008074400,62,0x0000,
0.0008089600,62,0x0000,
0.0008105000,62,0x0000,
0.0008120400,62,0x0000,
0.0008135800,62,0x0000,
0.0008151200,62,0x0000,
0.0008175200,63,0x0000,
0.0008190400,63,0x0000,
0.0008205800,63,0x0000,
0.0008221200,63,0x0000,
0.0008236600,63,0x0000,
0.0008252000,63,0x0000,
0.0008267200,63,0x0000,
0.0008282600,63,0x0000,
0.0008306600,64,0x0000,
0.0008322000,64,0x0000,
0.0008337400,64,0x0000,
0.0008352800,64,0x0000,
0.0008368000,64,0x0000,
0.0008383400,64,0x0000,
0.0008398800,64,0x0000,
0.0008414200,64,0x0000,
0.0008438200,65,0x0000,
0.0008453600,65,0x0000,
0.0008468800,65,0x0000,
0.0008484200,65,0x0000,
0.0008499600,65,0x0000,
0.0008515000,65,0x0000,
0.0008530400,65,0x0000,
0.0008545600,65,0x0000,
0.0008569600,66,0x0000,
0.0008585000,66,0x0000,
0.0008600400,66,0x0000,
0.0008615800,66,0x0000,
0.0008631200,66,0x0000,
0.0008646400,66,0x0000,
0.0008661800,66,0x0000,
0.0008677200,66,0x0000,
0.0008701200,67,0x0000,
0.0008716600,67,0x0000,
0.0008732000,67,0x0000,
0.0008747200,67,0x0000,
0.0008762600,67,0x0000,
0.0008778000,67,0x0000,
0.0008793400,67,0x0000,
0.0008808800,67,0x0000,
0.0008832800,68,0x0000,
0.0008848000,68,0x0000,
0.0008863400,68,0x0000,
0.0008878800,68,0x0000,
0.0008894200,68,0x0000,
0.0008909600,68,0x0000,
0.0008924800,68,0x0000,
0.0008940200,68,0x0000,
0.0008964200,69,0x0000,
0.0008979600,69,0x0000,
0.0008995000,69,0x0000,
0.0009010400,69,0x0000,
0.0009025600,69,0x0000,
0.0009041000,69,0x0000,
0.0009056400,69,0x0000,
0.0009071800,69,0x0000,
0.0009095800,70,0x0000,
0.0009111200,70,0x0000,
0.0009126600,70,0x0000,
0.0009141800,70,0x0000,
0.0009157200,70,0x0000,
0.0009172600,70,0x0000,
0.0009188000,70,0x0000,
0.0009203400,70,0x0000,
0.0009227400,71,0x0003,
0.0009242600,71,0xFFE3,
0.0009258000,71,0xFFE3,
0.0009273400,71,0xFFE3,
0.0009288800,71,0xFFE3,
0.0009304200,71,0xFFE3,
0.0009319400,71,0xFFE3,
0.0009334800,71,0xFFE3,
0.0009360800,72,0x0000,
0.0009376200,72,0x0000,
0.0009391400,72,0x0000,
0.0009406800,72,0x0000,
0.0009422200,72,0x0000,
0.0009437600,72,0x0000,
0.0009452800,72,0x0000,
0.0009468200,72,0x0000,
0.0009492200,73,0x0000,
0.0009507600,73,0x0000,
0.0009523000,73,0x0000,
0.0009538400,73,0x0000,
0.0009553800,73,0x0000,
0.0009569000,73,0x0000,
0.0009584400,73,0x0000,
0.0009599800,73,0x0000,
0.0009623800,74,0x0000,
0.0009639200,74,0x0000,
0.0009654600,74,0x0000,
0.0009669800,74,0x0000,
0.0009685200,74,0x0000,
0.0009700600,74,0x0000,
0.0009716000,74,0x0000,
0.0009731400,74,0x0000,
0.0009755400,75,0x0000,
0.0009770600,75,0x0000,
0.0009786000,75,0x0000,
0.0009801400,75,0x0000,
0.0009816800,75,0x0000,
0.0009832200,75,0x0000,
0.0009847400,75,0x0000,
0.0009862800,75,0x0000,
0.0009886800,76,0x0000,
0.0009902200,76,0x0000,
0.0009917600,76,0x0000,
0.0009933000,76,0x0000,
0.0009948200,76,0x0000,
0.0009963600,76,0x0000,
0.0009979000,76,0x0000,
0.0009994400,76,0x0000,
0.0010018400,77,0x0000,
0.0010033800,77,0x0000,
0.0010049000,77,0x0000,
0.0010064400,77,0x0000,
0.0010079800,77,0x0000,
0.0010095200,77,0x0000,
0.0010110600,77,0x0000,
0.0010125800,77,0x0000,
0.0010149800,78,0x0000,
0.0010165200,78,0x0000,
0.0010180600,78,0x0000,
0.0010196000,78,0x0000,
0.0010211400,78,0x0000,
0.0010226600,78,0x0000,
0.0010242000,78,0x0000,
0.0010257400,78,0x0000,
0.0010281400,79,0x0000,
0.0010296800,79,0x0000,
0.0010312200,79,0x0000,
0.0010327400,79,0x0000,
0.0010342800,79,0x0000,
0.0010358200,79,0x0000,
0.0010373600,79,0x0000,
0.0010389000,79,0x0000,
0.0010413000,80,0x0000,
0.0010428200,80,0x0000,
0.0010443600,80,0x0000,
0.0010459000,80,0x0000,
0.0010474400,80,0x0000,
0.0010489800,80,0x0000,
0.0010505000,80,0x0000,
0.0010520400,80,0x0000,
0.0010544400,81,0x0000,
0.0010559800,81,0x0000,
0.0010575200,81,0x0000,
0.0010590600,81,0x0000,
0.0010605800,81,0x0000,
0.0010621200,81,0x0000,
0.0010636600,81,0x0000,
0.0010652000,81,0x0000,
0.0010676000,82,0x0000,
0.0010691400,82,0x0000,
0.0010706600,82,0x0000,
0.0010722000,82,0x0000,
0.0010737400,82,0x0000,
0.0010752800,82,0x0000,
0.0010768200,82,0x0000,
0.0010783400,82,0x0000,
0.0010807400,83,0x0000,
0.0010822800,83,0x0000,
0.0010838200,83,0x0000,
0.0010853600,83,0x0000,
0.0010869000,83,0x0000,
0.0010884200,83,0x0000,
0.0010899600,83,0x0000,
0.0010915000,83,0x0000,
0.0010939000,84,0x0000,
0.0010954400,84,0x0000,
0.0010969800,84,0x0000,
0.0010985000,84,0x0000,
0.0011000400,84,0x0000,
0.0011015800,84,0x0000,
0.0011031200,84,0x0000,
0.0011046600,84,0x0000,
0.0011070600,85,0x0000,
0.0011085800,85,0x0000,
0.0011101200,85,0x0000,
0.0011116600,85,0x0000,
0.0011132000,85,0x0000,
0.0011147400,85,0x0000,
0.0011162600,85,0x0000,
0.0011178000,85,0x0000,
0.0011202000,86,0x0000,
0.0011217400,86,0x0000,
0.0011232800,86,0x0000,
0.0011248200,86,0x0000,
0.0011263400,86,0x0000,
0.0011278800,86,0x0000,
0.0011294200,86,0x0000,
0.0011309600,86,0x0000,
0.0011333600,87,0x0003,
0.0011349000,87,0xFFE3,
0.0011364200,87,0xFFE3,
0.0011379600,87,0xFFE3,
0.0011395000,87,0xFFE3,
0.0011410400,87,0xFFE3,
0.0011425800,87,0xFFE3,
0.0011441000,87,0xFFE3,
0.0011467000,88,0x0000,
0.0011482400,88,0x0000,
0.0011497800,88,0x0000,
0.0011513000,88,0x0000,
0.0011528400,88,0x0000,
0.0011543800,88,0x0000,
0.0011559200,88,0x0000,
0.0011574600,88,0x0000,
0.0011598600,89,0x0000,
0.0011613800,89,0x0000,
0.0011629200,89,0x0000,
0.0011644600,89,0x0000,
0.0011660000,89,0x0000,
0.0011675400,89,0x0000,
0.0011690600,89,0x0000,
0.0011706000,89,0x0000,
0.0011730000,90,0x0000,
0.0011745400,90,0x0000,
0.0011760800,90,0x0000,
0.0011776200,90,0x0000,
0.0011791600,90,0x0000,
0.0011806800,90,0x0000,
0.0011822200,90,0x0000,
0.0011837600,90,0x0000,
0.0011861600,91,0x0000,
0.0011877000,91,0x0000,
0.0011892400,91,0x0000,
0.0011907600,91,0x0000,
0.0011923000,91,0x0000,
0.0011938400,91,0x0000,
0.0011953800,91,0x0000,
0.0011969200,91,0x0000,
0.0011993200,92,0x0000,
0.0012008400,92,0x0000,
0.0012023800,92,0x0000,
0.0012039200,92,0x0000,
0.0012054600,92,0x0000,
0.0012069800,92,0x0000,
0.0012085200,92,0x0000,
0.0012100600,92,0x0000,
0.0012124600,93,0x0000,
0.0012140000,93,0x0000,
0.0012155400,93,0x0000,
0.0012170800,93,0x0000,
0.0012186000,93,0x0000,
0.0012201400,93,0x0000,
0.0012216800,93,0x0000,
0.0012232200,93,0x0000,
0.0012256200,94,0x0000,
0.0012271600,94,0x0000,
0.0012286800,94,0x0000,
0.0012302200,94,0x0000,
0.0012317600,94,0x0000,
0.0012333000,94,0x0000,
0.0012348400,94,0x0000,
0.0012363600,94,0x0000,
0.0012387600,95,0x0000,
0.0012403000,95,0x0000,
0.0012418400,95,0x0000,
0.0012433800,95,0x0000,
0.0012449200,95,0x0000,
0.0012464400,95,0x0000,
0.0012479800,95,0x0000,
0.0012495200,95,0x0000,
0.0012519200,96,0x0000,
0.0012534600,96,0x0000,
0.0012550000,96,0x0000,
0.0012565200,96,0x0000,
0.0012580600,96,0x0000,
0.0012596000,96,0x0000,
0.0012611400,96,0x0000,
0.0012626800,96,0x0000,
0.0012650800,97,0x0000,
0.0012666000,97,0x0000,
0.0012681400,97,0x0000,
0.0012696800,97,0x0000,
0.0012712200,97,0x0000,
0.0012727600,97,0x0000,
0.0012742800,97,0x0000,
0.0012758200,97,0x0000,
0.0012782200,98,0x0000,
0.0012797600,98,0x0000,
0.0012813000,98,0x0000,
0.0012828400,98,0x0000,
0.0012843600,98,0x0000,
0.0012859000,98,0x0000,
0.0012874400,98,0x0000,
0.0012889800,98,0x0000,
0.0012913800,99,0x0000,
0.0012929200,99,0x0000,
0.0012944400,99,0x0000,
0.0012959800,99,0x0000,
0.0012975200,99,0x0000,
0.0012990600,99,0x0000,
0.0013006000,99,0x0000,
0.0013021200,99,0x0000,
0.0013045200,100,0x0000,
0.0013060600,100,0x0000,
0.0013076000,100,0x0000,
0.0013091400,100,0x0000,
0.0013106800,100,0x0000,
0.0013122000,100,0x0000,
0.0013137400,100,0x0000,
0.0013152800,100,0x0000,
0.0013176800,101,0x0000,
0.0013192200,101,0x0000,
0.0013207600,101,0x0000,
0.0013222800,101,0x0000,
0.0013238200,101,0x0000,
0.0013253600,101,0x0000,
0.0013269000,101,0x0000,
0.0013284400,101,0x0000,
0.0013308400,102,0x0000,
0.0013323600,102,0x0000,
0.0013339000,102,0x0000,
0.0013354400,102,0x0000,
0.0013369800,102,0x0000,
0.0013385200,102,0x0000,
0.0013400400,102,0x0000,
0.0013415800,102,0x0000,
0.0013439800,103,0x0003,
0.0013455200,103,0xFFE3,
0.0013470600,103,0xFFE3,
0.0013486000,103,0xFFE3,
0.0013501200,103,0xFFE3,
0.0013516600,103,0xFFE3,
0.0013532000,103,0xFFE3,
0.0013547400,103,0xFFE3,
0.0013573200,104,0x0000,
0.0013588600,104,0x0000,
0.0013604000,104,0x0000,
0.0013619400,104,0x0000,
0.0013634800,104,0x0000,
0.0013650000,104,0x0000,
0.0013665400,104,0x0000,
0.0013680800,104,0x0000,
0.0013704800,105,0x0000,
0.0013720200,105,0x0000,
0.0013735600,105,0x0000,
0.0013750800,105,0x0000,
0.0013766200,105,0x0000,
