Time [s],Packet ID,MOSI,MISO
0.0000000000,0,The initial (idle) state of the CLK line does not match the settings,
0.0000069000,2,0x1000,
0.0000084400,2,0x2A80,
0.0000099800,2,0x2A80,
0.0000115000,2,0x2A80,
0.0000130400,2,0x2A80,
0.0000145800,2,0x2A80,
0.0000161200,2,0x2A80,
0.0000176600,2,0x2A80,
0.0000201400,3,0x0000,
0.0000216800,3,0xD500,
0.0000232200,3,0xD500,
0.0000247600,3,0xD500,
0.0000263000,3,0xD500,
0.0000278200,3,0xD500,
0.0000293600,3,0xD500,
0.0000309000,3,0xD500,
0.0000333000,4,0x1FFA,
0.0000348400,4,0x807A,
0.0000363800,4,0x807A,
0.0000379000,4,0x807A,
0.0000394400,4,0x807A,
0.0000409800,4,0x807A,
0.0000425200,4,0x807A,
0.0000440600,4,0x807A,
0.0000464600,5,0xE000,
0.0000479800,5,0x2A80,
0.0000495200,5,0x2A80,
0.0000510600,5,0x2A80,
0.0000526000,5,0x2A80,
0.0000541400,5,0x2A80,
0.0000556800,5,0x2A80,
0.0000572000,5,0x2A80,
0.0000596000,6,0x0000,
0.0000611400,6,0xAA80,
0.0000626800,6,0xAA80,
0.0000642200,6,0xAA80,
0.0000657400,6,0xAA80,
0.0000672800,6,0xAA80,
0.0000688200,6,0xAA80,
0.0000703600,6,0xAA80,
0.0000727600,7,0x0000,
0.0000743000,7,0x0880,
0.0000758200,7,0x5601,
0.0000773600,7,0xC203,
0.0000789000,7,0xC984,
0.0000804400,7,0x7482,
0.0000819800,7,0xD200,
0.0000835000,7,0xE900,
0.0000859000,8,0x0000,
0.0000874400,8,0x0980,
0.0000889800,8,0x6501,
0.0000905200,8,0xE403,
0.0000920600,8,0xEE04,
0.0000936000,8,0x6082,
0.0000951200,8,0xA600,
0.0000966600,8,0xCE00,
0.0000990600,9,0x0000,
0.0001006000,9,0x0B00,
0.0001021400,9,0x7182,
0.0001036800,9,0x0784,
0.0001052000,9,0x0084,
0.0001067400,9,0x4D02,
0.0001082800,9,0x8980,
0.0001098200,9,0xBA80,
0.0001122200,10,0x0000,
0.0001137600,10,0x0C80,
0.0001152800,10,0x8402,
0.0001168200,10,0x2004,
0.0001183600,10,0x1384,
0.0001199000,10,0x3982,
0.0001214400,10,0x6080,
0.0001229600,10,0xA300,
0.0001253600,11,0x0000,
0.0001269000,11,0x0E80,
0.0001284400,11,0x9302,
0.0001299800,11,0x4604,
0.0001315200,11,0x2684,
0.0001330400,11,0x2682,
0.0001345800,11,0x4600,
0.0001361200,11,0x9300,
0.0001385200,12,0x0000,
0.0001400600,12,0x1000,
0.0001416000,12,0xA302,
0.0001431200,12,0x6084,
0.0001446600,12,0x3984,
0.0001462000,12,0x1382,
0.0001477400,12,0x2000,
0.0001492800,12,0x8400,
0.0001516800,13,0x0000,
0.0001532000,13,0x1300,
0.0001547400,13,0xBA82,
0.0001562800,13,0x8984,
0.0001578200,13,0x4D04,
0.0001593600,13,0x0082,
0.0001608800,13,0x0780,
0.0001624200,13,0x7180,
0.0001648200,14,0x0000,
0.0001663600,14,0x1600,
0.0001679000,14,0xCE02,
0.0001694400,14,0xA604,
0.0001709600,14,0x6083,
0.0001725000,14,0xEE01,
0.0001740400,14,0xE400,
0.0001755800,14,0x6500,
0.0001779800,15,0x0000,
0.0001795200,15,0x1980,
0.0001810400,15,0xE902,
0.0001825800,15,0xD204,
0.0001841200,15,0x7483,
0.0001856600,15,0xC981,
0.0001872000,15,0xC200,
0.0001887200,15,0x5600,
0.0001911200,16,0x0000,
0.0001926600,16,0x1D80,
0.0001942000,16,0xFF82,
0.0001957400,16,0xF084,
0.0001972800,16,0x7483,
0.0001988000,16,0xB781,
0.0002003400,16,0xA180,
0.0002018800,16,0x4B80,
0.0002042800,17,0x0000,
0.0002058200,17,0x2401,
0.0002073600,17,0x1703,
0.0002088800,17,0x0F84,
0.0002104200,17,0x8903,
0.0002119600,17,0x9401,
0.0002135000,17,0x8300,
0.0002150400,17,0x4280,
0.0002174400,18,0x0000,
0.0002189600,18,0x2A01,
0.0002205000,18,0x3803,
0.0002220400,18,0x2F84,
0.0002235800,18,0x8903,
0.0002251200,18,0x7181,
0.0002266400,18,0x6580,
0.0002281800,18,0x3780,
0.0002305800,19,0x0000,
0.0002321200,19,0x3001,
0.0002336600,19,0x4A03,
0.0002352000,19,0x5004,
0.0002367200,19,0x8903,
0.0002382600,19,0x5001,
0.0002398000,19,0x4A00,
0.0002413400,19,0x3000,
0.0002437400,20,0x0000,
0.0002452800,20,0x3781,
0.0002468000,20,0x6583,
0.0002483400,20,0x7184,
0.0002498800,20,0x8903,
0.0002514200,20,0x2F81,
0.0002529600,20,0x3800,
0.0002544800,20,0x2A00,
0.0002568800,21,0x0000,
0.0002584200,21,0x4281,
0.0002599600,21,0x8303,
0.0002615000,21,0x9404,
0.0002630400,21,0x8903,
0.0002645600,21,0x0F81,
0.0002661000,21,0x1700,
0.0002676400,21,0x2400,
0.0002700400,22,0x0000,
0.0002715800,22,0x4B81,
0.0002731200,22,0xA183,
0.0002746400,22,0xB784,
0.0002761800,22,0x7482,
0.0002777200,22,0xF080,
0.0002792600,22,0xFF80,
0.0002808000,22,0x1D80,
0.0002832000,23,0x0000,
0.0002847200,23,0x0240,
0.0002862600,23,0x1840,
0.0002878000,23,0x7901,
0.0002893400,23,0x04E1,
0.0002908800,23,0x31A0,
0.0002924000,23,0xBFE0,
0.0002939400,23,0x3FE0,
0.0002965400,24,0x0000,
0.0002980800,24,0x0A80,
0.0002996000,24,0x6D02,
0.0003011400,24,0x0784,
0.0003026800,24,0x2684,
0.0003042200,24,0xB182,
0.0003057600,24,0xE100,
0.0003072800,24,0xE200,
0.0003096800,25,0x0000,
0.0003112200,25,0x0B80,
0.0003127600,25,0x7F02,
0.0003143000,25,0x2004,
0.0003158400,25,0x4D04,
0.0003173600,25,0x9D02,
0.0003189000,25,0xB480,
0.0003204400,25,0xCE00,
0.0003228400,26,0x0000,
0.0003243800,26,0x0D80,
0.0003259200,26,0x8E02,
0.0003274400,26,0x4604,
0.0003289800,26,0x6084,
0.0003305200,26,0x8902,
0.0003320600,26,0x9780,
0.0003336000,26,0xB480,
0.0003360000,27,0x0000,
0.0003375400,27,0x0F80,
0.0003390600,27,0xA302,
0.0003406000,27,0x6E04,
0.0003421400,27,0x7484,
0.0003436800,27,0x7482,
0.0003452000,27,0x6E00,
0.0003467400,27,0xA300,
0.0003491400,28,0x0000,
0.0003506800,28,0x1200,
0.0003522200,28,0xB482,
0.0003537600,28,0x9784,
0.0003553000,28,0x8904,
0.0003568200,28,0x6082,
0.0003583600,28,0x4600,
0.0003599000,28,0x8E00,
0.0003623000,29,0x0000,
0.0003638400,29,0x1500,
0.0003653800,29,0xCE02,
0.0003669000,29,0xB484,
0.0003684400,29,0x9D04,
0.0003699800,29,0x4D02,
0.0003715200,29,0x2000,
0.0003730600,29,0x7F00,
0.0003754600,30,0x0000,
0.0003769800,30,0x1800,
0.0003785200,30,0xE202,
0.0003800600,30,0xE104,
0.0003816000,30,0xB184,
0.0003831400,30,0x2682,
0.0003846600,30,0x0780,
0.0003862000,30,0x6D00,
0.0003886000,31,0x0000,
0.0003901400,31,0x1C00,
0.0003916800,31,0xFF82,
0.0003932200,31,0xFF84,
0.0003947400,31,0xC684,
0.0003962800,31,0x1381,
0.0003978200,31,0xE400,
0.0003993600,31,0x6100,
0.0004017600,32,0x0000,
0.0004033000,32,0x2081,
0.0004048200,32,0x1703,
0.0004063600,32,0x1F84,
0.0004079000,32,0xC683,
0.0004094400,32,0xEE01,
0.0004109800,32,0xC200,
0.0004125000,32,0x5280,
0.0004149000,33,0x0000,
0.0004164400,33,0x2601,
0.0004179800,33,0x2F83,
0.0004195200,33,0x5004,
0.0004210600,33,0xDB83,
0.0004225800,33,0xDB81,
0.0004241200,33,0xA180,
0.0004256600,33,0x4880,
0.0004280600,34,0x0000,
0.0004296000,34,0x2E01,
0.0004311400,34,0x4A03,
0.0004326600,34,0x7184,
0.0004342000,34,0xDB83,
0.0004357400,34,0xB781,
0.0004372800,34,0x8300,
0.0004388200,34,0x3C80,
0.0004412200,35,0x0000,
0.0004427400,35,0x3501,
0.0004442800,35,0x6583,
0.0004458200,35,0x9404,
0.0004473600,35,0xDB83,
0.0004489000,35,0x9401,
0.0004504200,35,0x6580,
0.0004519600,35,0x3500,
0.0004543600,36,0x0000,
0.0004559000,36,0x3C81,
0.0004574400,36,0x8303,
0.0004589800,36,0xB784,
0.0004605000,36,0xDB83,
0.0004620400,36,0x7181,
0.0004635800,36,0x4A00,
0.0004651200,36,0x2E00,
0.0004675200,37,0x0000,
0.0004690600,37,0x4881,
0.0004705800,37,0xA183,
0.0004721200,37,0xDB84,
0.0004736600,37,0xDB83,
0.0004752000,37,0x5001,
0.0004767400,37,0x2F80,
0.0004782600,37,0x2600,
0.0004806600,38,0x0000,
0.0004822000,38,0x5281,
0.0004837400,38,0xC203,
0.0004852800,38,0xEE04,
0.0004868200,38,0xC683,
0.0004883400,38,0x1F81,
0.0004898800,38,0x1700,
0.0004914200,38,0x2080,
0.0004938200,39,0x0000,
0.0004953600,39,0x0260,
0.0004969000,39,0x1A40,
0.0004984200,39,0x81E1,
0.0004999600,39,0x1821,
0.0005015000,39,0x4700,
0.0005030400,39,0xCBE0,
0.0005045800,39,0x43C0,
0.0005071600,40,0x0000,
0.0005087000,40,0x0B00,
0.0005102400,40,0x7602,
0.0005117800,40,0x2C84,
0.0005133000,40,0x7485,
0.0005148400,40,0x0683,
0.0005163800,40,0x0F80,
0.0005179200,40,0xF800,
0.0005203200,41,0x0000,
0.0005218600,41,0x0C80,
0.0005233800,41,0x8882,
0.0005249200,41,0x5304,
0.0005264600,41,0x9D04,
0.0005280000,41,0xF102,
0.0005295400,41,0xE100,
0.0005310600,41,0xDB00,
0.0005334600,42,0x0000,
0.0005350000,42,0x0E00,
0.0005365400,42,0x9802,
0.0005380800,42,0x6E04,
0.0005396200,42,0xB184,
0.0005411400,42,0xDB82,
0.0005426800,42,0xC300,
0.0005442200,42,0xC780,
0.0005466200,43,0x0000,
0.0005481600,43,0x1000,
0.0005497000,43,0xAE82,
0.0005512200,43,0x9784,
0.0005527600,43,0xC684,
0.0005543000,43,0xC682,
0.0005558400,43,0x9780,
0.0005573800,43,0xAE80,
0.0005597800,44,0x0000,
0.0005613000,44,0x1400,
0.0005628400,44,0xC782,
0.0005643800,44,0xC304,
0.0005659200,44,0xDB84,
0.0005674600,44,0xB182,
0.0005689800,44,0x6E00,
0.0005705200,44,0x9800,
0.0005729200,45,0x0000,
0.0005744600,45,0x1600,
0.0005760000,45,0xDB02,
0.0005775400,45,0xE104,
0.0005790800,45,0xF104,
0.0005806000,45,0x9D02,
0.0005821400,45,0x5300,
0.0005836800,45,0x8880,
0.0005860800,46,0x0000,
0.0005876200,46,0x1B00,
0.0005891600,46,0xF803,
0.0005906800,46,0x0F85,
0.0005922200,46,0x0684,
0.0005937600,46,0x7482,
0.0005953000,46,0x2C80,
0.0005968200,46,0x7600,
0.0005992400,47,0x0000,
0.0006007600,47,0x1F01,
0.0006023000,47,0x0F03,
0.0006038400,47,0x2F85,
0.0006053800,47,0x1C04,
0.0006069000,47,0x6082,
0.0006084400,47,0x0780,
0.0006099800,47,0x6900,
0.0006123800,48,0x0000,
0.0006139200,48,0x2401,
0.0006154600,48,0x2703,
0.0006169800,48,0x6105,
0.0006185200,48,0x1C04,
0.0006200600,48,0x3981,
0.0006216000,48,0xE400,
0.0006231400,48,0x5980,
0.0006255400,49,0x0000,
0.0006270800,49,0x2A01,
0.0006286000,49,0x4A03,
0.0006301400,49,0x8305,
0.0006316800,49,0x1C04,
0.0006332200,49,0x1381,
0.0006347600,49,0xC200,
0.0006362800,49,0x4F00,
0.0006386800,50,0x0000,
0.0006402200,50,0x3281,
0.0006417600,50,0x6583,
0.0006433000,50,0xA585,
0.0006448400,50,0x3203,
0.0006463600,50,0xEE01,
0.0006479000,50,0xA180,
0.0006494400,50,0x4280,
0.0006518400,51,0x0000,
0.0006533800,51,0x3A01,
0.0006549200,51,0x8303,
0.0006564400,51,0xC985,
0.0006579800,51,0x3203,
0.0006595200,51,0xC981,
0.0006610600,51,0x8300,
0.0006626000,51,0x3A00,
0.0006650000,52,0x0000,
0.0006665200,52,0x4281,
0.0006680600,52,0xA183,
0.0006696000,52,0xEE05,
0.0006711400,52,0x3203,
0.0006726800,52,0xA581,
0.0006742000,52,0x6580,
0.0006757400,52,0x3280,
0.0006781400,53,0x0000,
0.0006796800,53,0x4F01,
0.0006812200,53,0xC204,
0.0006827600,53,0x1385,
0.0006842800,53,0x1C03,
0.0006858200,53,0x8301,
0.0006873600,53,0x4A00,
0.0006889000,53,0x2A00,
0.0006913000,54,0x0000,
0.0006928400,54,0x5981,
0.0006943600,54,0xE404,
0.0006959000,54,0x3985,
0.0006974400,54,0x1C03,
0.0006989800,54,0x6101,
0.0007005200,54,0x2700,
0.0007020400,54,0x2400,
0.0007044400,55,0x0000,
0.0007059800,55,0x02A0,
0.0007075200,55,0x1C60,
0.0007090600,55,0x8801,
0.0007106000,55,0x2741,
0.0007121200,55,0x57A0,
0.0007136600,55,0xDC60,
0.0007152000,55,0x49C0,
0.0007178000,56,0x0000,
0.0007193200,56,0x0B80,
0.0007208600,56,0x7F02,
0.0007224000,56,0x5304,
0.0007239400,56,0xC685,
0.0007254800,56,0x5E83,
0.0007270000,56,0x3F81,
0.0007285400,56,0x0700,
0.0007309400,57,0x0000,
0.0007324800,57,0x0D80,
0.0007340200,57,0x9302,
0.0007355600,57,0x6E04,
0.0007370800,57,0xDB85,
0.0007386200,57,0x4883,
0.0007401600,57,0x0F80,
0.0007417000,57,0xF080,
0.0007441000,58,0x0000,
0.0007456400,58,0x0F80,
0.0007471600,58,0xA902,
0.0007487000,58,0x9785,
0.0007502400,58,0x0685,
0.0007517800,58,0x3202,
0.0007533200,58,0xF080,
0.0007548400,58,0xD480,
0.0007572400,59,0x0000,
0.0007587800,59,0x1200,
0.0007603200,59,0xBA82,
0.0007618600,59,0xC305,
0.0007634000,59,0x1C05,
0.0007649200,59,0x1C02,
0.0007664600,59,0xC300,
0.0007680000,59,0xBA80,
0.0007704000,60,0x0000,
0.0007719400,60,0x1500,
0.0007734800,60,0xD482,
0.0007750000,60,0xF085,
0.0007765400,60,0x3205,
0.0007780800,60,0x0682,
0.0007796200,60,0x9780,
0.0007811600,60,0xA900,
0.0007835600,61,0x0000,
0.0007850800,61,0x1800,
0.0007866200,61,0xF083,
0.0007881600,61,0x0F85,
0.0007897000,61,0x4884,
0.0007912400,61,0xDB82,
0.0007927600,61,0x6E00,
0.0007943000,61,0x9300,
0.0007967000,62,0x0000,
0.0007982400,62,0x1C01,
0.0007997800,62,0x0703,
0.0008013200,62,0x3F85,
0.0008028400,62,0x5E84,
0.0008043800,62,0xC682,
0.0008059200,62,0x5300,
0.0008074600,62,0x7F00,
0.0008098600,63,0x0000,
0.0008114000,63,0x2081,
0.0008129200,63,0x2703,
0.0008144600,63,0x7185,
0.0008160000,63,0x5E84,
0.0008175400,63,0x9D02,
0.0008190800,63,0x2000,
0.0008206000,63,0x7180,
0.0008230000,64,0x0000,
0.0008245400,64,0x2801,
0.0008260800,64,0x4103,
0.0008276200,64,0x9405,
0.0008291600,64,0x7584,
0.0008306800,64,0x8902,
0.0008322200,64,0x0780,
0.0008337600,64,0x6100,
0.0008361600,65,0x0000,
0.0008377000,65,0x2E01,
0.0008392400,65,0x5C83,
0.0008407600,65,0xB785,
0.0008423000,65,0x7584,
0.0008438400,65,0x6081,
0.0008453800,65,0xD880,
0.0008469200,65,0x5600,
0.0008493200,66,0x0000,
0.0008508600,66,0x3501,
0.0008523800,66,0x7903,
0.0008539200,66,0xEE05,
0.0008554600,66,0x8C04,
0.0008570000,66,0x3981,
0.0008585400,66,0xB700,
0.0008600600,66,0x4880,
0.0008624600,67,0x0000,
0.0008640000,67,0x3F81,
0.0008655400,67,0x9704,
0.0008670800,67,0x1385,
0.0008686000,67,0x8C04,
0.0008701400,67,0x1381,
0.0008716800,67,0x9700,
0.0008732200,67,0x3F80,
0.0008756200,68,0x0000,
0.0008771600,68,0x4881,
0.0008787000,68,0xB704,
0.0008802200,68,0x3985,
0.0008817600,68,0x8C03,
0.0008833000,68,0xEE01,
0.0008848400,68,0x7900,
0.0008863800,68,0x3500,
0.0008887800,69,0x0000,
0.0008903000,69,0x5601,
0.0008918400,69,0xD884,
0.0008933800,69,0x6085,
0.0008949200,69,0x7583,
0.0008964600,69,0xB781,
0.0008979800,69,0x5C80,
0.0008995200,69,0x2E00,
0.0009019200,70,0x0000,
0.0009034600,70,0x6102,
0.0009050000,70,0x0784,
0.0009065400,70,0x8905,
0.0009080600,70,0x7583,
0.0009096000,70,0x9401,
0.0009111400,70,0x4100,
0.0009126800,70,0x2800,
0.0009150800,71,0x0000,
0.0009166200,71,0x02C0,
0.0009181400,71,0x1EA0,
0.0009196800,71,0x9181,
0.0009212200,71,0x3C41,
0.0009227600,71,0x6EA0,
0.0009243000,71,0xE960,
0.0009258200,71,0x4E00,
0.0009284200,72,0x0000,
0.0009299600,72,0x0C00,
0.0009315000,72,0x8E02,
0.0009330200,72,0x6E05,
0.0009345600,72,0x1C05,
0.0009361000,72,0xBA83,
0.0009376400,72,0x7181,
0.0009391800,72,0x1F00,
0.0009415800,73,0x0000,
0.0009431000,73,0x0E00,
0.0009446400,73,0x9D82,
0.0009461800,73,0x9785,
0.0009477200,73,0x3205,
0.0009492600,73,0xA383,
0.0009507800,73,0x3F80,
0.0009523200,73,0xFF80,
0.0009547200,74,0x0000,
0.0009562600,74,0x1000,
0.0009578000,74,0xB482,
0.0009593400,74,0xC305,
0.0009608600,74,0x5E85,
0.0009624000,74,0x8C03,
0.0009639400,74,0x1F80,
0.0009654800,74,0xE200,
0.0009678800,75,0x0000,
0.0009694200,75,0x1300,
0.0009709400,75,0xCE02,
0.0009724800,75,0xF085,
0.0009740200,75,0x7585,
0.0009755600,75,0x7582,
0.0009771000,75,0xF080,
0.0009786200,75,0xCE00,
0.0009810200,76,0x0000,
0.0009825600,76,0x1600,
0.0009841000,76,0xE203,
0.0009856400,76,0x1F85,
0.0009871800,76,0x8C05,
0.0009887000,76,0x5E82,
0.0009902400,76,0xC300,
0.0009917800,76,0xB480,
0.0009941800,77,0x0000,
0.0009957200,77,0x1980,
0.0009972600,77,0xFF83,
0.0009987800,77,0x3F85,
0.0010003200,77,0xA385,
0.0010018600,77,0x3202,
0.0010034000,77,0x9780,
0.0010049400,77,0x9D80,
0.0010073400,78,0x0000,
0.0010088600,78,0x1F01,
0.0010104000,78,0x1F03,
0.0010119400,78,0x7185,
0.0010134800,78,0xBA85,
0.0010150200,78,0x1C02,
0.0010165400,78,0x6E00,
0.0010180800,78,0x8E00,
0.0010204800,79,0x0000,
0.0010220200,79,0x2401,
0.0010235600,79,0x3803,
0.0010251000,79,0xA585,
0.0010266200,79,0xBA84,
0.0010281600,79,0xF102,
0.0010297000,79,0x4600,
0.0010312400,79,0x7A80,
0.0010336400,80,0x0000,
0.0010351800,80,0x2A01,
0.0010367000,80,0x5303,
0.0010382400,80,0xC985,
0.0010397800,80,0xD284,
0.0010413200,80,0xC682,
0.0010428600,80,0x2000,
0.0010443800,80,0x6900,
0.0010467800,81,0x0000,
0.0010483200,81,0x3281,
0.0010498600,81,0x6F04,
0.0010514000,81,0x0085,
0.0010529400,81,0xD284,
0.0010544800,81,0x9D01,
0.0010560000,81,0xFB80,
0.0010575400,81,0x5D00,
0.0010599400,82,0x0000,
0.0010614800,82,0x3A01,
0.0010630200,82,0x9704,
0.0010645400,82,0x2685,
0.0010660800,82,0xEA04,
0.0010676200,82,0x7481,
0.0010691600,82,0xD880,
0.0010707000,82,0x4F00,
0.0010731000,83,0x0000,
0.0010746200,83,0x4581,
0.0010761600,83,0xB704,
0.0010777000,83,0x4D05,
0.0010792400,83,0xEA04,
0.0010807800,83,0x4D01,
0.0010823000,83,0xB700,
0.0010838400,83,0x4580,
0.0010862400,84,0x0000,
0.0010877800,84,0x4F01,
0.0010893200,84,0xD884,
0.0010908600,84,0x7485,
0.0010923800,84,0xEA04,
0.0010939200,84,0x2681,
0.0010954600,84,0x9700,
0.0010970000,84,0x3A00,
0.0010994000,85,0x0000,
0.0011009400,85,0x5D01,
0.0011024600,85,0xFB84,
0.0011040000,85,0x9D05,
0.0011055400,85,0xD284,
0.0011070800,85,0x0081,
0.0011086200,85,0x6F00,
0.0011101400,85,0x3280,
0.0011125400,86,0x0000,
0.0011140800,86,0x6902,
0.0011156200,86,0x2004,
0.0011171600,86,0xC685,
0.0011187000,86,0xD283,
0.0011202400,86,0xC981,
0.0011217600,86,0x5300,
0.0011233000,86,0x2A00,
0.0011257000,87,0x0000,
0.0011272400,87,0x02E0,
0.0011287800,87,0x2100,
0.0011303000,87,0x9B81,
0.0011318400,87,0x4C81,
0.0011333800,87,0x86A0,
0.0011349200,87,0xF6E0,
0.0011364600,87,0x5280,
0.0011390400,88,0x0000,
0.0011405800,88,0x0D80,
0.0011421200,88,0x9802,
0.0011436600,88,0x9785,
0.0011452000,88,0x5E86,
0.0011467200,88,0x0283,
0.0011482600,88,0xA581,
0.0011498000,88,0x2F80,
0.0011522000,89,0x0000,
0.0011537400,89,0x0E80,
0.0011552800,89,0xA902,
0.0011568000,89,0xC305,
0.0011583400,89,0x8C06,
0.0011598800,89,0x0283,
0.0011614200,89,0x7181,
0.0011629600,89,0x0F00,
0.0011653600,90,0x0000,
0.0011668800,90,0x1200,
0.0011684200,90,0xC102,
0.0011699600,90,0xF085,
0.0011715000,90,0xA385,
0.0011730400,90,0xEA03,
0.0011745600,90,0x5000,
0.0011761000,90,0xF800,
0.0011785000,91,0x0000,
0.0011800400,91,0x1500,
0.0011815800,91,0xDB03,
0.0011831000,91,0x1F85,
0.0011846400,91,0xBA85,
0.0011861800,91,0xBA83,
0.0011877200,91,0x1F80,
0.0011892600,91,0xDB00,
0.0011916600,92,0x0000,
0.0011932000,92,0x1800,
0.0011947200,92,0xF803,
0.0011962600,92,0x5005,
0.0011978000,92,0xEA05,
0.0011993400,92,0xA382,
0.0012008800,92,0xF080,
0.0012024000,92,0xC100,
0.0012048000,93,0x0000,
0.0012063400,93,0x1C01,
0.0012078800,93,0x0F03,
0.0012094200,93,0x7186,
0.0012109600,93,0x0285,
0.0012124800,93,0x8C02,
0.0012140200,93,0xC300,
0.0012155600,93,0xA900,
0.0012179600,94,0x0000,
0.0012195000,94,0x2081,
0.0012210400,94,0x2F83,
0.0012225600,94,0xA586,
0.0012241000,94,0x0285,
0.0012256400,94,0x5E82,
0.0012271800,94,0x9780,
0.0012287200,94,0x9800,
0.0012311200,95,0x0000,
0.0012326400,95,0x2801,
0.0012341800,95,0x4A03,
0.0012357200,95,0xDB86,
0.0012372600,95,0x1A85,
0.0012388000,95,0x3202,
0.0012403200,95,0x6E00,
0.0012418600,95,0x8400,
0.0012442600,96,0x0000,
0.0012458000,96,0x2E01,
0.0012473400,96,0x6584,
0.0012488800,96,0x0086,
0.0012504000,96,0x3305,
0.0012519400,96,0x1C02,
0.0012534800,96,0x4600,
0.0012550200,96,0x7180,
0.0012574200,97,0x0000,
0.0012589600,97,0x3501,
0.0012604800,97,0x8D04,
0.0012620200,97,0x3986,
0.0012635600,97,0x3304,
0.0012651000,97,0xF102,
0.0012666400,97,0x2000,
0.0012681600,97,0x6500,
0.0012705600,98,0x0000,
0.0012721000,98,0x3F81,
0.0012736400,98,0xAC04,
0.0012751800,98,0x6086,
0.0012767200,98,0x3304,
0.0012782400,98,0xC681,
0.0012797800,98,0xEF80,
0.0012813200,98,0x5600,
0.0012837200,99,0x0000,
0.0012852600,99,0x4881,
0.0012868000,99,0xCD04,
0.0012883200,99,0x8906,
0.0012898600,99,0x3304,
0.0012914000,99,0x8901,
0.0012929400,99,0xCD00,
0.0012944800,99,0x4880,
0.0012968800,100,0x0000,
0.0012984000,100,0x5601,
0.0012999400,100,0xEF84,
0.0013014800,100,0xC686,
0.0013030200,100,0x3304,
0.0013045600,100,0x6081,
0.0013060800,100,0xAC00,
0.0013076200,100,0x3F80,
0.0013100200,101,0x0000,
0.0013115600,101,0x6502,
0.0013131000,101,0x2004,
0.0013146400,101,0xF106,
0.0013161600,101,0x3304,
0.0013177000,101,0x3981,
0.0013192400,101,0x8D00,
0.0013207800,101,0x3500,
0.0013231800,102,0x0000,
0.0013247200,102,0x7182,
0.0013262400,102,0x4605,
0.0013277800,102,0x1C06,
0.0013293200,102,0x3304,
0.0013308600,102,0x0081,
0.0013324000,102,0x6580,
0.0013339200,102,0x2E00,
0.0013363200,103,0x0000,
0.0013378600,103,0x0300,
0.0013394000,103,0x2380,
0.0013409400,103,0xA5E1,
0.0013424800,103,0x6301,
0.0013440000,103,0x9FA1,
0.0013455400,103,0x04E0,
0.0013470800,103,0x5720,
0.0013496800,104,0x0000,
0.0013512000,104,0x0E00,
0.0013527400,104,0xA302,
0.0013542800,104,0xC305,
0.0013558200,104,0xBA86,
0.0013573600,104,0x6503,
0.0013588800,104,0xDB81,
0.0013604200,104,0x4100,
0.0013628200,105,0x0000,
0.0013643600,105,0x1000,
0.0013659000,105,0xB482,
0.0013674400,105,0xF085,
0.0013689800,105,0xD286,
0.0013705000,105,0x4C03,
0.0013720400,105,0xA581,
0.0013735800,105,0x2700,
0.0013759800,106,0x0000,
0.0013775200,106,0x1300,
0.0013790600,106,0xCE03,
0.0013805800,106,0x1F86,
0.0013821200,106,0x0286,
0.0013836600,106,0x3303,
0.0013852000,106,0x8301,
0.0013867200,106,0x0700,
0.0013891400,107,0x0000,
0.0013906600,107,0x1600,
0.0013922000,107,0xE903,
0.0013937400,107,0x5006,
0.0013952800,107,0x1A86,
0.0013968000,107,0x1A83,
0.0013983400,107,0x5000,
0.0013998800,107,0xE900,
0.0014022800,108,0x0000,
0.0014038200,108,0x1981,
0.0014053600,108,0x0703,
0.0014069000,108,0x8306,
0.0014084200,108,0x3306,
0.0014099600,108,0x0283,
0.0014115000,108,0x1F80,
0.0014130400,108,0xCE00,
0.0014154400,109,0x0000,
0.0014169800,109,0x1D81,
0.0014185000,109,0x2703,
0.0014200400,109,0xA586,
0.0014215800,109,0x4C05,
0.0014231200,109,0xD282,
0.0014246600,109,0xF080,
0.0014261800,109,0xB480,
0.0014285800,110,0x0000,
0.0014301200,110,0x2401,
0.0014316600,110,0x4103,
0.0014332000,110,0xDB86,
0.0014347400,110,0x6505,
0.0014362600,110,0xBA82,
0.0014378000,110,0xC300,
0.0014393400,110,0xA300,
0.0014417400,111,0x0000,
0.0014432800,111,0x2A01,
0.0014448200,111,0x5C84,
0.0014463400,111,0x1386,
0.0014478800,111,0x7E85,
0.0014494200,111,0x8C02,
0.0014509600,111,0x9780,
0.0014525000,111,0x8E00,
0.0014549000,112,0x0000,
0.0014564200,112,0x3281,
0.0014579600,112,0x8304,
0.0014595000,112,0x3986,
0.0014610400,112,0x9805,
0.0014625800,112,0x5E82,
0.0014641000,112,0x6080,
0.0014656400,112,0x7A80,
0.0014680400,113,0x0000,
0.0014695800,113,0x3A01,
0.0014711200,113,0xA184,
0.0014726600,113,0x7486,
0.0014741800,113,0x9805,
0.0014757200,113,0x3202,
0.0014772600,113,0x3900,
0.0014788000,113,0x6D00,
0.0014812000,114,0x0000,
0.0014827400,114,0x4581,
0.0014842600,114,0xC204,
0.0014858000,114,0x9D06,
0.0014873400,114,0x9805,
0.0014888800,114,0x0682,
0.0014904200,114,0x1380,
0.0014919400,114,0x5D00,
0.0014943400,115,0x0000,
0.0014958800,115,0x4F01,
0.0014974200,115,0xEF84,
0.0014989600,115,0xDB86,
0.0015005000,115,0x9804,
0.0015020200,115,0xDB81,
0.0015035600,115,0xEF80,
0.0015051000,115,0x4F00,
0.0015075000,116,0x0000,
0.0015090400,116,0x5D02,
0.0015105800,116,0x1385,
0.0015121000,116,0x0686,
0.0015136400,116,0x9804,
0.0015151800,116,0x9D01,
0.0015167200,116,0xC200,
0.0015182600,116,0x4580,
0.0015206600,117,0x0000,
0.0015221800,117,0x6D02,
0.0015237200,117,0x3905,
0.0015252600,117,0x3206,
0.0015268000,117,0x9804,
0.0015283400,117,0x7481,
0.0015298600,117,0xA180,
0.0015314000,117,0x3A00,
0.0015338000,118,0x0000,
0.0015353400,118,0x7A82,
0.0015368800,118,0x6085,
0.0015384200,118,0x5E86,
0.0015399400,118,0x9804,
0.0015414800,118,0x3981,
0.0015430200,118,0x8300,
0.0015445600,118,0x3280,
0.0015469600,119,0x0000,
0.0015485000,119,0x0320,
0.0015500200,119,0x2600,
0.0015515600,119,0xAD21,
0.0015531000,119,0x74A1,
0.0015546400,119,0xB981,
0.0015561800,119,0x1340,
0.0015577000,119,0x5BC0,
0.0015603000,120,0x0000,
0.0015618400,120,0x0E80,
0.0015633800,120,0xAE82,
0.0015649000,120,0xE106,
0.0015664400,120,0x0286,
0.0015679800,120,0xCB84,
0.0015695200,120,0x1381,
0.0015710600,120,0x5300,
0.0015734600,121,0x0000,
0.0015749800,121,0x1100,
0.0015765200,121,0xC783,
0.0015780600,121,0x0F86,
0.0015796000,121,0x3306,
0.0015811400,121,0xB183,
0.0015826600,121,0xDB81,
0.0015842000,121,0x3800,
0.0015866000,122,0x0000,
0.0015881400,122,0x1400,
0.0015896800,122,0xDB03,
0.0015912200,122,0x3F86,
0.0015927400,122,0x4C06,
0.0015942800,122,0x9803,
0.0015958200,122,0xA581,
0.0015973600,122,0x1700,
0.0015997600,123,0x0000,
0.0016013000,123,0x1700,
0.0016028200,123,0xF803,
0.0016043600,123,0x7186,
0.0016059000,123,0x7E86,
0.0016074400,123,0x7E83,
0.0016089800,123,0x7180,
0.0016105000,123,0xF800,
0.0016129000,124,0x0000,
0.0016144400,124,0x1B01,
0.0016159800,124,0x1703,
0.0016175200,124,0xA586,
0.0016190600,124,0x9806,
0.0016205800,124,0x4C03,
0.0016221200,124,0x3F80,
0.0016236600,124,0xDB00,
0.0016260600,125,0x0000,
0.0016276000,125,0x2081,
0.0016291400,125,0x3803,
0.0016306800,125,0xDB86,
0.0016322000,125,0xB186,
0.0016337400,125,0x3303,
0.0016352800,125,0x0F80,
0.0016368200,125,0xC780,
0.0016392200,126,0x0000,
0.0016407600,126,0x2601,
0.0016422800,126,0x5304,
0.0016438200,126,0x1386,
0.0016453600,126,0xCB86,
0.0016469000,126,0x0282,
0.0016484400,126,0xE100,
0.0016499600,126,0xAE80,
0.0016523600,127,0x0000,
0.0016539000,127,0x2E01,
0.0016554400,127,0x6F04,
0.0016569800,127,0x4D06,
0.0016585000,127,0xE605,
0.0016600400,127,0xD282,
0.0016615800,127,0xB480,
0.0016631200,127,0x9800,
0.0016655200,128,0x0000,
0.0016670600,128,0x3501,
0.0016686000,128,0x9704,
0.0016701200,128,0x8906,
0.0016716600,128,0xE605,
0.0016732000,128,0xA382,
0.0016747400,128,0x8980,
0.0016762800,128,0x8400,
0.0016786800,129,0x0000,
0.0016802000,129,0x3F81,
0.0016817400,129,0xB704,
0.0016832800,129,0xB187,
0.0016848200,129,0x0085,
0.0016863600,129,0x7582,
0.0016878800,129,0x6080,
0.0016894200,129,0x7180,
0.0016918200,130,0x0000,
0.0016933600,130,0x4881,
0.0016949000,130,0xE404,
0.0016964400,130,0xF107,
0.0016979600,130,0x0085,
0.0016995000,130,0x4882,
0.0017010400,130,0x2C80,
0.0017025800,130,0x6500,
0.0017049800,131,0x0000,
0.0017065200,131,0x5602,
0.0017080400,131,0x0785,
0.0017095800,131,0x1C07,
0.0017111200,131,0x0085,
0.0017126600,131,0x1C02,
0.0017142000,131,0x0780,
0.0017157200,131,0x5600,
0.0017181200,132,0x0000,
0.0017196600,132,0x6502,
0.0017212000,132,0x2C85,
0.0017227400,132,0x4887,
0.0017242800,132,0x0084,
0.0017258000,132,0xF101,
0.0017273400,132,0xE400,
0.0017288800,132,0x4880,
0.0017312800,133,0x0000,
0.0017328200,133,0x7182,
0.0017343600,133,0x6085,
0.0017358800,133,0x7587,
0.0017374200,133,0x0084,
0.0017389600,133,0xB181,
0.0017405000,133,0xB700,
0.0017420400,133,0x3F80,
0.0017444400,134,0x0000,
0.0017459600,134,0x8402,
0.0017475000,134,0x8985,
0.0017490400,134,0xA386,
0.0017505800,134,0xE604,
0.0017521200,134,0x8901,
0.0017536400,134,0x9700,
0.0017551800,134,0x3500,
0.0017575800,135,0x0000,
0.0017591200,135,0x0360,
0.0017606600,135,0x28C0,
0.0017622000,135,0xB841,
0.0017637200,135,0x8CC1,
0.0017652600,135,0xCDA1,
0.0017668000,135,0x2240,
0.0017683400,135,0x60C0,
0.0017709200,136,0x0000,
0.0017724600,136,0x0F80,
0.0017740000,136,0xBA83,
0.0017755400,136,0x0F86,
0.0017770800,136,0x6507,
0.0017786000,136,0x3684,
0.0017801400,136,0x4D01,
0.0017816800,136,0x6580,
0.0017840800,137,0x0000,
0.0017856200,137,0x1200,
0.0017871600,137,0xCE03,
0.0017886800,137,0x3F86,
0.0017902200,137,0x7E87,
0.0017917600,137,0x1B84,
0.0017933000,137,0x1381,
0.0017948400,137,0x4A00,
0.0017972400,138,0x0000,
0.0017987600,138,0x1500,
0.0018003000,138,0xE903,
0.0018018400,138,0x7186,
0.0018033800,138,0xB187,
0.0018049200,138,0x0083,
0.0018064400,138,0xDB81,
0.0018079800,138,0x2700,
0.0018103800,139,0x0000,
0.0018119200,139,0x1801,
0.0018134600,139,0x0703,
0.0018150000,139,0xA586,
0.0018165200,139,0xCB86,
0.0018180600,139,0xCB83,
0.0018196000,139,0xA581,
0.0018211400,139,0x0700,
0.0018235400,140,0x0000,
0.0018250800,140,0x1D81,
0.0018266000,140,0x2703,
0.0018281400,140,0xDB87,
0.0018296800,140,0x0086,
0.0018312200,140,0xB183,
0.0018327600,140,0x7180,
0.0018342800,140,0xE900,
0.0018366800,141,0x0000,
0.0018382200,141,0x2281,
0.0018397600,141,0x4A04,
0.0018413000,141,0x1387,
0.0018428400,141,0x1B86,
0.0018443600,141,0x7E83,
0.0018459000,141,0x3F80,
0.0018474400,141,0xCE00,
0.0018498400,142,0x0000,
0.0018513800,142,0x2A01,
0.0018529200,142,0x6584,
0.0018544400,142,0x4D07,
0.0018559800,142,0x3686,
0.0018575200,142,0x6503,
0.0018590600,142,0x0F80,
0.0018606000,142,0xBA80,
0.0018630000,143,0x0000,
0.0018645200,143,0x3001,
0.0018660600,143,0x8304,
0.0018676000,143,0x8907,
0.0018691400,143,0x3686,
0.0018706800,143,0x3302,
0.0018722000,143,0xE100,
0.0018737400,143,0xA300,
0.0018761400,144,0x0000,
0.0018776800,144,0x3A01,
0.0018792200,144,0xAC04,
0.0018807600,144,0xC687,
0.0018822800,144,0x5186,
0.0018838200,144,0x0282,
0.0018853600,144,0xA600,
0.0018869000,144,0x8E00,
0.0018893000,145,0x0000,
0.0018908400,145,0x4281,
0.0018923600,145,0xCD04,
0.0018939000,145,0xF107,
0.0018954400,145,0x5185,
0.0018969800,145,0xD282,
0.0018985200,145,0x7B80,
0.0019000600,145,0x7A80,
0.0019024600,146,0x0000,
0.0019039800,146,0x4F01,
0.0019055200,146,0xFB85,
0.0019070600,146,0x3207,
0.0019086000,146,0x6D05,
0.0019101400,146,0x8C02,
0.0019116600,146,0x5300,
0.0019132000,146,0x6900,
0.0019156000,147,0x0000,
0.0019171400,147,0x5D02,
0.0019186800,147,0x2005,
0.0019202000,147,0x5E87,
0.0019217400,147,0x6D05,
0.0019232800,147,0x5E82,
0.0019248200,147,0x2000,
0.0019263600,147,0x5D00,
0.0019287600,148,0x0000,
0.0019303000,148,0x6902,
0.0019318200,148,0x5305,
0.0019333600,148,0x8C07,
0.0019349000,148,0x6D05,
0.0019364400,148,0x3201,
0.0019379800,148,0xFB80,
0.0019395000,148,0x4F00,
0.0019419000,149,0x0000,
0.0019434400,149,0x7A82,
0.0019449800,149,0x7B85,
0.0019465200,149,0xD287,
0.0019480600,149,0x5184,
0.0019495800,149,0xF101,
0.0019511200,149,0xCD00,
0.0019526600,149,0x4280,
0.0019550600,150,0x0000,
0.0019566000,150,0x8E02,
0.0019581400,150,0xA606,
0.0019596600,150,0x0287,
0.0019612000,150,0x5184,
0.0019627400,150,0xC681,
0.0019642800,150,0xAC00,
0.0019658200,150,0x3A00,
0.0019682200,151,0x0000,
0.0019697400,151,0x0380,
0.0019712800,151,0x2BA0,
0.0019728200,151,0xBFE1,
0.0019743600,151,0x9FA1,
0.0019759000,151,0xE941,
0.0019774200,151,0x31A0,
0.0019789600,151,0x65C0,
0.0019815600,152,0x0000,
0.0019831000,152,0x1000,
0.0019846200,152,0xC783,
0.0019861600,152,0x2F86,
0.0019877000,152,0xB187,
0.0019892400,152,0x8904,
0.0019907800,152,0x8901,
0.0019923000,152,0x7900,
0.0019947000,153,0x0000,
0.0019962400,153,0x1300,
0.0019977800,153,0xE203,
0.0019993200,153,0x7186,
0.0020008600,153,0xE607,
0.0020023800,153,0x6D04,
0.0020039200,153,0x4D01,
0.0020054600,153,0x5300,
0.0020078600,154,0x0000,
0.0020094000,154,0x1600,
0.0020109400,154,0xF803,
0.0020124600,154,0xA587,
0.0020140000,154,0x0087,
0.0020155400,154,0x5184,
0.0020170800,154,0x1381,
0.0020186200,154,0x3800,
0.0020210200,155,0x0000,
0.0020225400,155,0x1B01,
0.0020240800,155,0x1703,
0.0020256200,155,0xDB87,
0.0020271600,155,0x3687,
0.0020287000,155,0x3683,
0.0020302200,155,0xDB81,
0.0020317600,155,0x1700,
0.0020341600,156,0x0000,
0.0020357000,156,0x1F01,
0.0020372400,156,0x3804,
0.0020387800,156,0x1387,
0.0020403000,156,0x5187,
0.0020418400,156,0x0083,
0.0020433800,156,0xA580,
0.0020449200,156,0xF800,
0.0020473200,157,0x0000,
0.0020488600,157,0x2401,
0.0020503800,157,0x5304,
0.0020519200,157,0x4D07,
0.0020534600,157,0x6D06,
0.0020550000,157,0xE603,
0.0020565400,157,0x7180,
0.0020580600,157,0xE200,
0.0020604600,158,0x0000,
0.0020620000,158,0x2C01,
0.0020635400,158,0x7904,
0.0020650800,158,0x8907,
0.0020666200,158,0x8906,
0.0020681400,158,0xB183,
0.0020696800,158,0x2F80,
0.0020712200,158,0xC780,
0.0020736200,159,0x0000,
0.0020751600,159,0x3281,
0.0020767000,159,0x9704,
0.0020782200,159,0xC687,
0.0020797600,159,0xA506,
0.0020813000,159,0x7E82,
0.0020828400,159,0xFF80,
0.0020843800,159,0xAE80,
0.0020867800,160,0x0000,
0.0020883000,160,0x3C81,
0.0020898400,160,0xC204,
0.0020913800,160,0xF107,
0.0020929200,160,0xC186,
0.0020944600,160,0x4C02,
0.0020959800,160,0xD200,
0.0020975200,160,0x9800,
0.0020999200,161,0x0000,
0.0021014600,161,0x4881,
0.0021030000,161,0xEF85,
0.0021045400,161,0x3207,
0.0021060600,161,0xC186,
0.0021076000,161,0x1A82,
0.0021091400,161,0x9780,
0.0021106800,161,0x8400,
0.0021130800,162,0x0000,
0.0021146200,162,0x5282,
0.0021161400,162,0x1385,
0.0021176800,162,0x7587,
0.0021192200,162,0xC185,
0.0021207600,162,0xEA02,
0.0021223000,162,0x6E00,
0.0021238200,162,0x7180,
0.0021262200,163,0x0000,
0.0021277600,163,0x6102,
0.0021293000,163,0x3905,
0.0021308400,163,0xA387,
0.0021323800,163,0xC185,
0.0021339000,163,0xA382,
0.0021354400,163,0x3900,
0.0021369800,163,0x6100,
0.0021393800,164,0x0000,
0.0021409200,164,0x7182,
0.0021424600,164,0x6E05,
0.0021439800,164,0xEA07,
0.0021455200,164,0xC185,
0.0021470600,164,0x7582,
0.0021486000,164,0x1380,
0.0021501400,164,0x5280,
0.0021525400,165,0x0000,
0.0021540800,165,0x8402,
0.0021556000,165,0x9786,
0.0021571400,165,0x1A87,
0.0021586800,165,0xC185,
0.0021602200,165,0x3201,
0.0021617400,165,0xEF80,
0.0021632800,165,0x4880,
0.0021656800,166,0x0000,
0.0021672200,166,0x9802,
0.0021687600,166,0xD206,
0.0021703000,166,0x4C07,
0.0021718400,166,0xC184,
0.0021733600,166,0xF101,
0.0021749000,166,0xC200,
0.0021764400,166,0x3C80,
0.0021788400,167,0x0000,
0.0021803800,167,0x03A0,
0.0021819000,167,0x2D20,
0.0021834400,167,0xC7E1,
0.0021849800,167,0xB2E2,
0.0021865200,167,0x0601,
0.0021880600,167,0x3C40,
0.0021896000,167,0x6B00,
0.0021921800,168,0x0000,
0.0021937200,168,0x1100,
0.0021952600,168,0xCE03,
0.0021968000,168,0x6107,
0.0021983200,168,0x0087,
0.0021998600,168,0xFB04,
0.0022014000,168,0xC681,
0.0022029400,168,0x8D00,
0.0022053400,169,0x0000,
0.0022068800,169,0x1400,
0.0022084000,169,0xE903,
0.0022099400,169,0x9407,
0.0022114800,169,0x3687,
0.0022130200,169,0xDE04,
0.0022145600,169,0x8901,
0.0022160800,169,0x6580,
0.0022184800,170,0x0000,
0.0022200200,170,0x1701,
0.0022215600,170,0x0703,
0.0022231000,170,0xC987,
0.0022246400,170,0x6D07,
0.0022261600,170,0xC184,
0.0022277000,170,0x3981,
0.0022292400,170,0x4A00,
0.0022316400,171,0x0000,
0.0022331800,171,0x1C01,
0.0022347000,171,0x2704,
0.0022362400,171,0x0087,
0.0022377800,171,0x8907,
0.0022393200,171,0x8904,
0.0022408600,171,0x0081,
0.0022424000,171,0x2700,
0.0022448000,172,0x0000,
0.0022463200,172,0x2081,
0.0022478600,172,0x4A04,
0.0022494000,172,0x3987,
0.0022509400,172,0xC187,
0.0022524800,172,0x6D03,
0.0022540000,172,0xC981,
0.0022555400,172,0x0700,
0.0022579400,173,0x0000,
0.0022594800,173,0x2801,
0.0022610200,173,0x6584,
0.0022625600,173,0x8907,
0.0022640800,173,0xDE07,
0.0022656200,173,0x3683,
0.0022671600,173,0x9400,
0.0022687000,173,0xE900,
0.0022711000,174,0x0000,
0.0022726400,174,0x2E01,
0.0022741600,174,0x8D04,
0.0022757000,174,0xC687,
0.0022772400,174,0xFB07,
0.0022787800,174,0x0083,
0.0022803200,174,0x6100,
0.0022818400,174,0xCE00,
0.0022842400,175,0x0000,
0.0022857800,175,0x3781,
0.0022873200,175,0xAC04,
0.0022888600,175,0xF108,
0.0022904000,175,0x1806,
0.0022919200,175,0xCB83,
0.0022934600,175,0x1F80,
0.0022950000,175,0xB480,
0.0022974000,176,0x0000,
0.0022989400,176,0x4281,
0.0023004800,176,0xD885,
0.0023020000,176,0x3208,
0.0023035400,176,0x1806,
0.0023050800,176,0x9802,
0.0023066200,176,0xF080,
0.0023081600,176,0x9D80,
0.0023105600,177,0x0000,
0.0023120800,177,0x4B82,
0.0023136200,177,0x0785,
0.0023151600,177,0x7588,
0.0023167000,177,0x3506,
0.0023182400,177,0x6502,
0.0023197600,177,0xB480,
0.0023213000,177,0x8880,
0.0023237000,178,0x0000,
0.0023252400,178,0x5982,
0.0023267800,178,0x2C85,
0.0023283200,178,0xBA88,
0.0023298400,178,0x3506,
0.0023313800,178,0x3302,
0.0023329200,178,0x8980,
0.0023344600,178,0x7A80,
0.0023368600,179,0x0000,
0.0023384000,179,0x6902,
0.0023399200,179,0x6085,
0.0023414600,179,0xEA08,
0.0023430000,179,0x3505,
0.0023445400,179,0xEA02,
0.0023460800,179,0x6080,
0.0023476000,179,0x6900,
0.0023500000,180,0x0000,
0.0023515400,180,0x7A82,
0.0023530800,180,0x8986,
0.0023546200,180,0x3308,
0.0023561600,180,0x3505,
0.0023576800,180,0xBA82,
0.0023592200,180,0x2C80,
0.0023607600,180,0x5980,
0.0023631600,181,0x0000,
0.0023647000,181,0x8882,
0.0023662400,181,0xB486,
0.0023677600,181,0x6508,
0.0023693000,181,0x3505,
0.0023708400,181,0x7582,
0.0023723800,181,0x0780,
0.0023739200,181,0x4B80,
0.0023763200,182,0x0000,
0.0023778400,182,0x9D82,
0.0023793800,182,0xF086,
0.0023809200,182,0x9808,
0.0023824600,182,0x1805,
0.0023840000,182,0x3201,
0.0023855200,182,0xD880,
0.0023870600,182,0x4280,
0.0023894600,183,0x0000,
0.0023910000,183,0x03E0,
0.0023925400,183,0x3040,
0.0023940800,183,0xD401,
0.0023956000,183,0xC6E2,
0.0023971400,183,0x1C21,
0.0023986800,183,0x4C80,
0.0024002200,183,0x7080,
0.0024028000,184,0x0000,
0.0024043400,184,0x1200,
0.0024058800,184,0xDB03,
0.0024074200,184,0x8307,
0.0024089600,184,0x5188,
0.0024104800,184,0x5304,
0.0024120200,184,0xF101,
0.0024135600,184,0xA180,
0.0024159600,185,0x0000,
0.0024175000,185,0x1500,
0.0024190400,185,0xF803,
0.0024205600,185,0xB787,
0.0024221000,185,0x8908,
0.0024236400,185,0x3504,
0.0024251800,185,0xB181,
0.0024267200,185,0x7900,
0.0024291200,186,0x0000,
0.0024306400,186,0x1801,
0.0024321800,186,0x1704,
0.0024337200,186,0x0087,
0.0024352600,186,0xC188,
0.0024368000,186,0x1804,
0.0024383400,186,0x7481,
0.0024398600,186,0x5300,
0.0024422600,187,0x0000,
0.0024438000,187,0x1D81,
0.0024453400,187,0x3804,
0.0024468800,187,0x3987,
0.0024484000,187,0xFB07,
0.0024499400,187,0xFB04,
0.0024514800,187,0x3981,
0.0024530200,187,0x3800,
0.0024554200,188,0x0000,
0.0024569600,188,0x2281,
0.0024584800,188,0x5304,
0.0024600200,188,0x7488,
0.0024615600,188,0x1807,
0.0024631000,188,0xC184,
0.0024646400,188,0x0081,
0.0024661800,188,0x1700,
0.0024685800,189,0x0000,
0.0024701000,189,0x2A01,
0.0024716400,189,0x7904,
0.0024731800,189,0xB188,
0.0024747200,189,0x3507,
0.0024762600,189,0x8903,
0.0024777800,189,0xB780,
0.0024793200,189,0xF800,
0.0024817200,190,0x0000,
0.0024832600,190,0x3001,
0.0024848000,190,0xA184,
0.0024863400,190,0xF108,
0.0024878600,190,0x5307,
0.0024894000,190,0x5183,
0.0024909400,190,0x8300,
0.0024924800,190,0xDB00,
0.0024948800,191,0x0000,
0.0024964200,191,0x3A01,
0.0024979400,191,0xC205,
0.0024994800,191,0x3208,
0.0025010200,191,0x7087,
0.0025025600,191,0x1B83,
0.0025041000,191,0x5000,
0.0025056200,191,0xC100,
0.0025080200,192,0x0000,
0.0025095600,192,0x4581,
0.0025111000,192,0xEF85,
0.0025126400,192,0x7588,
0.0025141800,192,0x8F06,
0.0025157000,192,0xE603,
0.0025172400,192,0x0F80,
0.0025187800,192,0xA900,
0.0025211800,193,0x0000,
0.0025227200,193,0x5282,
0.0025242600,193,0x2005,
0.0025257800,193,0xBA88,
0.0025273200,193,0x8F06,
0.0025288600,193,0xB182,
0.0025304000,193,0xE100,
0.0025319400,193,0x9300,
0.0025343400,194,0x0000,
0.0025358600,194,0x5D02,
0.0025374000,194,0x4606,
0.0025389400,194,0x0288,
0.0025404800,194,0xAD06,
0.0025420200,194,0x7E82,
0.0025435400,194,0xA600,
0.0025450800,194,0x7F00,
0.0025474800,195,0x0000,
0.0025490200,195,0x6D02,
0.0025505600,195,0x7B86,
0.0025521000,195,0x3308,
0.0025536200,195,0xAD06,
0.0025551600,195,0x3302,
0.0025567000,195,0x7B80,
0.0025582400,195,0x6D00,
0.0025606400,196,0x0000,
0.0025621800,196,0x7F02,
0.0025637000,196,0xA606,
0.0025652400,196,0x7E88,
0.0025667800,196,0xAD06,
0.0025683200,196,0x0282,
0.0025698600,196,0x4600,
0.0025713800,196,0x5D00,
0.0025737800,197,0x0000,
0.0025753200,197,0x9302,
0.0025768600,197,0xE106,
0.0025784000,197,0xB188,
0.0025799400,197,0x8F05,
0.0025814600,197,0xBA82,
0.0025830000,197,0x2000,
0.0025845400,197,0x5280,
0.0025869400,198,0x0000,
0.0025884800,198,0xA903,
0.0025900200,198,0x0F86,
0.0025915400,198,0xE608,
0.0025930800,198,0x8F05,
0.0025946200,198,0x7581,
0.0025961600,198,0xEF80,
0.0025977000,198,0x4580,
0.0026001000,199,0x0000,
0.0026016200,199,0x0400,
0.0026031600,199,0x3380,
0.0026047000,199,0xDC61,
0.0026062400,199,0xDB42,
0.0026077800,199,0x3AC1,
0.0026093000,199,0x5D60,
0.0026108400,199,0x7620,
0.0026134400,200,0x0000,
0.0026149800,200,0x1300,
0.0026165000,200,0xE903,
0.0026180400,200,0xA587,
0.0026195800,200,0xC188,
0.0026211200,200,0xCC05,
0.0026226600,200,0x3201,
0.0026241800,200,0xAC00,
0.0026265800,201,0x0000,
0.0026281200,201,0x1601,
0.0026296600,201,0x0703,
0.0026312000,201,0xEE07,
0.0026327400,201,0xDE08,
0.0026342600,201,0xAD04,
0.0026358000,201,0xF101,
0.0026373400,201,0x8D00,
0.0026397400,202,0x0000,
0.0026412800,202,0x1B01,
0.0026428200,202,0x2704,
0.0026443400,202,0x2688,
0.0026458800,202,0x1808,
0.0026474200,202,0x7084,
0.0026489600,202,0x9D01,
0.0026505000,202,0x6580,
0.0026529000,203,0x0000,
0.0026544200,203,0x1F01,
0.0026559600,203,0x4104,
0.0026575000,203,0x6088,
0.0026590400,203,0x5308,
0.0026605800,203,0x5304,
0.0026621000,203,0x6081,
0.0026636400,203,0x4100,
0.0026660400,204,0x0000,
0.0026675800,204,0x2401,
0.0026691200,204,0x6584,
0.0026706600,204,0x9D08,
0.0026721800,204,0x7088,
0.0026737200,204,0x1804,
0.0026752600,204,0x2681,
0.0026768000,204,0x2700,
0.0026792000,205,0x0000,
0.0026807400,205,0x2C01,
0.0026822600,205,0x8D04,
0.0026838000,205,0xF108,
0.0026853400,205,0xAD07,
0.0026868800,205,0xDE03,
0.0026884200,205,0xEE01,
0.0026899400,205,0x0700,
0.0026923400,206,0x0000,
0.0026938800,206,0x3501,
0.0026954200,206,0xAC05,
0.0026969600,206,0x3208,
0.0026985000,206,0xCC07,
0.0027000200,206,0xC183,
0.0027015600,206,0xA580,
0.0027031000,206,0xE900,
0.0027055000,207,0x0000,
0.0027070400,207,0x3C81,
0.0027085800,207,0xD885,
0.0027101000,207,0x7588,
0.0027116400,207,0xEB07,
0.0027131800,207,0x6D03,
0.0027147200,207,0x7180,
0.0027162600,207,0xCE00,
0.0027186600,208,0x0000,
0.0027202000,208,0x4882,
0.0027217200,208,0x0785,
0.0027232600,208,0xBA88,
0.0027248000,208,0xEB07,
0.0027263400,208,0x3683,
0.0027278800,208,0x2F80,
0.0027294000,208,0xB480,
0.0027318000,209,0x0000,
0.0027333400,209,0x5602,
0.0027348800,209,0x2C86,
0.0027364200,209,0x0289,
0.0027379600,209,0x0A07,
0.0027394800,209,0x0082,
0.0027410200,209,0xFF80,
0.0027425600,209,0x9D80,
0.0027449600,210,0x0000,
0.0027465000,210,0x6502,
0.0027480400,210,0x6086,
0.0027495600,210,0x3309,
0.0027511000,210,0x0A06,
0.0027526400,210,0xCB82,
0.0027541800,210,0xC300,
0.0027557200,210,0x8880,
0.0027581200,211,0x0000,
0.0027596400,211,0x7602,
0.0027611800,211,0x9786,
0.0027627200,211,0x7E89,
0.0027642600,211,0x0A06,
0.0027658000,211,0x7E82,
0.0027673200,211,0x9780,
0.0027688600,211,0x7600,
0.0027712600,212,0x0000,
0.0027728000,212,0x8882,
0.0027743400,212,0xC306,
0.0027758800,212,0xCB89,
0.0027774000,212,0x0A06,
0.0027789400,212,0x3302,
0.0027804800,212,0x6080,
0.0027820200,212,0x6500,
0.0027844200,213,0x0000,
0.0027859600,213,0x9D82,
0.0027874800,213,0xFF87,
0.0027890200,213,0x0089,
0.0027905600,213,0x0A06,
0.0027921000,213,0x0282,
0.0027936400,213,0x2C80,
0.0027951600,213,0x5600,
0.0027975600,214,0x0000,
0.0027991000,214,0xB483,
0.0028006400,214,0x2F87,
0.0028021800,214,0x3688,
0.0028037200,214,0xEB05,
0.0028052400,214,0xBA82,
0.0028067800,214,0x0780,
0.0028083200,214,0x4880,
0.0028107200,215,0x0000,
0.0028122600,215,0x0440,
0.0028138000,215,0x3520,
0.0028153200,215,0xE501,
0.0028168600,215,0xF062,
0.0028184000,215,0x5241,
0.0028199400,215,0x68E0,
0.0028214800,215,0x7BE0,
0.0028240600,216,0x0000,
0.0028256000,216,0x1400,
0.0028271400,216,0xF083,
0.0028286800,216,0xC988,
0.0028302000,216,0x1809,
0.0028317400,216,0x2985,
0.0028332800,216,0x5E81,
0.0028348200,216,0xC200,
0.0028372200,217,0x0000,
0.0028387600,217,0x1701,
0.0028402800,217,0x0F04,
0.0028418200,217,0x1388,
0.0028433600,217,0x5309,
0.0028449000,217,0x0A05,
0.0028464400,217,0x1C01,
0.0028479600,217,0x9700,
0.0028503600,218,0x0000,
0.0028519000,218,0x1C01,
0.0028534400,218,0x2F84,
0.0028549800,218,0x4D08,
0.0028565200,218,0x7088,
0.0028580400,218,0xEB04,
0.0028595800,218,0xDB81,
0.0028611200,218,0x7900,
0.0028635200,219,0x0000,
0.0028650600,219,0x2081,
0.0028666000,219,0x5304,
0.0028681200,219,0x8908,
0.0028696600,219,0xAD08,
0.0028712000,219,0xAD04,
0.0028727400,219,0x8901,
0.0028742800,219,0x5300,
0.0028766800,220,0x0000,
0.0028782000,220,0x2801,
0.0028797400,220,0x7904,
0.0028812800,220,0xDB88,
0.0028828200,220,0xEB08,
0.0028843600,220,0x7084,
0.0028858800,220,0x4D01,
0.0028874200,220,0x2F80,
0.0028898200,221,0x0000,
0.0028913600,221,0x2E01,
0.0028929000,221,0x9705,
0.0028944400,221,0x1C09,
0.0028959600,221,0x0A08,
0.0028975000,221,0x5304,
0.0028990400,221,0x1381,
0.0029005800,221,0x0F00,
0.0029029800,222,0x0000,
0.0029045200,222,0x3781,
0.0029060400,222,0xC205,
0.0029075800,222,0x5E89,
0.0029091200,222,0x2988,
0.0029106600,222,0x1803,
0.0029122000,222,0xC980,
0.0029137200,222,0xF080,
0.0029161200,223,0x0000,
0.0029176600,223,0x4281,
0.0029192000,223,0xEF85,
0.0029207400,223,0xA389,
0.0029222800,223,0x4907,
0.0029238000,223,0xC183,
0.0029253400,223,0x9400,
0.0029268800,223,0xD480,
0.0029292800,224,0x0000,
0.0029308200,224,0x4B82,
0.0029323600,224,0x1385,
0.0029338800,224,0xEA09,
0.0029354200,224,0x6907,
0.0029369600,224,0x8903,
0.0029385000,224,0x5000,
0.0029400400,224,0xBA80,
0.0029424400,225,0x0000,
0.0029439600,225,0x5982,
0.0029455000,225,0x4606,
0.0029470400,225,0x3309,
0.0029485800,225,0x6907,
0.0029501200,225,0x5183,
0.0029516400,225,0x1F80,
0.0029531800,225,0xA300,
0.0029555800,226,0x0000,
0.0029571200,226,0x6902,
0.0029586600,226,0x7B86,
0.0029602000,226,0x7E89,
0.0029617200,226,0x6907,
0.0029632600,226,0x0082,
0.0029648000,226,0xE100,
0.0029663400,226,0x8E00,
0.0029687400,227,0x0000,
0.0029702800,227,0x7A82,
0.0029718000,227,0xA606,
0.0029733400,227,0xCB89,
0.0029748800,227,0x8986,
0.0029764200,227,0xCB82,
0.0029779600,227,0xA600,
0.0029795000,227,0x7A80,
0.0029818800,228,0x0000,
0.0029834200,228,0x8E02,
0.0029849600,228,0xE107,
0.0029865000,228,0x0089,
0.0029880400,228,0x6906,
0.0029895800,228,0x7E82,
0.0029911000,228,0x7B80,
0.0029926400,228,0x6900,
0.0029950400,229,0x0000,
0.0029965800,229,0xA303,
0.0029981200,229,0x1F87,
0.0029996600,229,0x5189,
0.0030011800,229,0x6906,
0.0030027200,229,0x3302,
0.0030042600,229,0x4600,
0.0030058000,229,0x5980,
0.0030082000,230,0x0000,
0.0030097400,230,0xBA83,
0.0030112600,230,0x5007,
0.0030128000,230,0x8909,
0.0030143400,230,0x6905,
0.0030158800,230,0xEA02,
0.0030174200,230,0x1380,
0.0030189400,230,0x4B80,
0.0030213400,231,0x0000,
0.0030228800,231,0x0480,
0.0030244200,231,0x3880,
0.0030259600,231,0xEDE2,
0.0030275000,231,0x0602,
0.0030290200,231,0x6A81,
0.0030305600,231,0x7A80,
0.0030321000,231,0x7EE0,
0.0030347000,232,0x0000,
0.0030362200,232,0x1500,
0.0030377600,232,0xFF83,
0.0030393000,232,0xEE08,
0.0030408400,232,0x5309,
0.0030423800,232,0x8985,
0.0030439000,232,0x8C01,
0.0030454400,232,0xD880,
0.0030478400,233,0x0000,
0.0030493800,233,0x1801,
0.0030509200,233,0x1F04,
0.0030524600,233,0x3988,
0.0030539800,233,0xAD09,
0.0030555200,233,0x6905,
0.0030570600,233,0x4881,
0.0030586000,233,0xAC00,
0.0030610000,234,0x0000,
0.0030625400,234,0x1D81,
0.0030640600,234,0x4104,
0.0030656000,234,0x7488,
0.0030671400,234,0xCC09,
0.0030686800,234,0x4905,
0.0030702200,234,0x0681,
0.0030717400,234,0x8300,
0.0030741400,235,0x0000,
0.0030756800,235,0x2281,
0.0030772200,235,0x5C84,
0.0030787600,235,0xC689,
0.0030803000,235,0x0A09,
0.0030818200,235,0x0A04,
0.0030833600,235,0xC681,
0.0030849000,235,0x5C80,
0.0030873000,236,0x0000,
0.0030888400,236,0x2A01,
0.0030903800,236,0x8305,
0.0030919000,236,0x0689,
0.0030934400,236,0x4908,
0.0030949800,236,0xCC04,
0.0030965200,236,0x7481,
0.0030980600,236,0x4100,
0.0031004600,237,0x0000,
0.0031019800,237,0x3001,
0.0031035200,237,0xAC05,
0.0031050600,237,0x4889,
0.0031066000,237,0x6908,
0.0031081400,237,0xAD04,
0.0031096600,237,0x3981,
0.0031112000,237,0x1F00,
0.0031136000,238,0x0000,
0.0031151400,238,0x3A01,
0.0031166800,238,0xD885,
0.0031182200,238,0x8C09,
0.0031197400,238,0x8988,
0.0031212800,238,0x5303,
0.0031228200,238,0xEE00,
0.0031243600,238,0xFF80,
0.0031267600,239,0x0000,
0.0031283000,239,0x4581,
0.0031298200,239,0xFB85,
0.0031313600,239,0xEA09,
0.0031329000,239,0xAA08,
0.0031344400,239,0x1803,
0.0031359800,239,0xB780,
0.0031375000,239,0xE200,
0.0031399000,240,0x0000,
0.0031414400,240,0x5282,
0.0031429800,240,0x2C86,
0.0031445200,240,0x3309,
0.0031460600,240,0xCA87,
0.0031475800,240,0xDE03,
0.0031491200,240,0x7180,
0.0031506600,240,0xC780,
0.0031530600,241,0x0000,
0.0031546000,241,0x5D02,
0.0031561400,241,0x6086,
0.0031576600,241,0x7E89,
0.0031592000,241,0xEB87,
0.0031607400,241,0xA503,
0.0031622800,241,0x3F80,
0.0031638200,241,0xA900,
0.0031662200,242,0x0000,
0.0031677400,242,0x6D02,
0.0031692800,242,0x8986,
0.0031708200,242,0xCB89,
0.0031723600,242,0xEB87,
0.0031739000,242,0x5182,
0.0031754200,242,0xFF80,
0.0031769600,242,0x9300,
0.0031793600,243,0x0000,
0.0031809000,243,0x7F02,
0.0031824400,243,0xC307,
0.0031839800,243,0x0089,
0.0031855000,243,0xEB87,
0.0031870400,243,0x0082,
0.0031885800,243,0xC300,
0.0031901200,243,0x7F00,
0.0031925200,244,0x0000,
0.0031940600,244,0x9302,
0.0031955800,244,0xFF87,
0.0031971200,244,0x5189,
0.0031986600,244,0xEB86,
0.0032002000,244,0xCB82,
0.0032017400,244,0x8980,
0.0032032600,244,0x6D00,
0.0032056600,245,0x0000,
0.0032072000,245,0xA903,
0.0032087400,245,0x3F87,
0.0032102800,245,0xA509,
0.0032118200,245,0xEB86,
0.0032133400,245,0x7E82,
0.0032148800,245,0x6080,
0.0032164200,245,0x5D00,
0.0032188200,246,0x0000,
0.0032203600,246,0xC783,
0.0032219000,246,0x7187,
0.0032234200,246,0xDE09,
0.0032249600,246,0xCA86,
0.0032265000,246,0x3302,
0.0032280400,246,0x2C80,
0.0032295800,246,0x5280,
0.0032319800,247,0x0000,
0.0032335000,247,0x0480,
0.0032350400,247,0x3A40,
0.0032365800,247,0xF6E2,
0.0032381200,247,0x1C22,
0.0032396600,247,0x8341,
0.0032411800,247,0x86A0,
0.0032427200,247,0x84E0,
0.0032453200,248,0x0000,
0.0032468600,248,0x1601,
0.0032484000,248,0x0704,
0.0032499200,248,0x1388,
0.0032514600,248,0xAD09,
0.0032530000,248,0xEB85,
0.0032545400,248,0xD281,
0.0032560800,248,0xE400,
0.0032584800,249,0x0000,
0.0032600000,249,0x1981,
0.0032615400,249,0x2704,
0.0032630800,249,0x6088,
0.0032646200,249,0xEB09,
0.0032661600,249,0xCA85,
0.0032676800,249,0x7581,
0.0032692200,249,0xB700,
0.0032716200,250,0x0000,
0.0032731600,250,0x1D81,
0.0032747000,250,0x4A04,
0.0032762400,250,0x9D09,
0.0032777600,250,0x2989,
0.0032793000,250,0xAA05,
0.0032808400,250,0x3201,
0.0032823800,250,0x9700,
0.0032847800,251,0x0000,
0.0032863200,251,0x2401,
0.0032878400,251,0x6F04,
0.0032893800,251,0xF109,
0.0032909200,251,0x6909,
0.0032924600,251,0x6904,
0.0032940000,251,0xF101,
0.0032955200,251,0x6F00,
0.0032979200,252,0x0000,
0.0032994600,252,0x2C01,
0.0033010000,252,0x9705,
0.0033025400,252,0x3209,
0.0033040800,252,0xAA09,
0.0033056000,252,0x2984,
0.0033071400,252,0x9D01,
0.0033086800,252,0x4A00,
0.0033110800,253,0x0000,
0.0033126200,253,0x3281,
0.0033141600,253,0xB705,
0.0033156800,253,0x7589,
0.0033172200,253,0xCA88,
0.0033187600,253,0xEB04,
0.0033203000,253,0x6081,
0.0033218400,253,0x2700,
0.0033242400,254,0x0000,
0.0033257600,254,0x3C81,
0.0033273000,254,0xE405,
0.0033288400,254,0xD289,
0.0033303800,254,0xEB88,
0.0033319200,254,0xAD04,
0.0033334400,254,0x1381,
0.0033349800,254,0x0700,
0.0033373800,255,0x0000,
0.0033389200,255,0x4882,
0.0033404600,255,0x1386,
0.0033420000,255,0x1A8A,
0.0033435200,255,0x0D08,
0.0033450600,255,0x7083,
0.0033466000,255,0xDB80,
0.0033481400,255,0xE900,
0.0033505400,256,0x0000,
0.0033520800,256,0x5602,
0.0033536000,256,0x4606,
0.0033551400,256,0x650A,
0.0033566800,256,0x2E88,
0.0033582200,256,0x3503,
0.0033597600,256,0x9400,
0.0033612800,256,0xCE00,
0.0033636800,257,0x0000,
0.0033652200,257,0x6502,
0.0033667600,257,0x6E06,
0.0033683000,257,0xB18A,
0.0033698400,257,0x5087,
0.0033713600,257,0xDE03,
0.0033729000,257,0x5000,
0.0033744400,257,0xB480,
0.0033768400,258,0x0000,
0.0033783800,258,0x7182,
0.0033799200,258,0xA607,
0.0033814400,258,0x008A,
0.0033829800,258,0x5087,
0.0033845200,258,0xA503,
0.0033860600,258,0x1F80,
0.0033876000,258,0x9D80,
0.0033900000,259,0x0000,
0.0033915200,259,0x8402,
0.0033930600,259,0xE107,
0.0033946000,259,0x518A,
0.0033961400,259,0x5087,
0.0033976800,259,0x5182,
0.0033992000,259,0xE100,
0.0034007400,259,0x8400,
0.0034031400,260,0x0000,
0.0034046800,260,0x9D83,
0.0034062200,260,0x1F87,
0.0034077600,260,0xA50A,
0.0034092800,260,0x5087,
0.0034108200,260,0x0082,
0.0034123600,260,0xA600,
0.0034139000,260,0x7180,
0.0034163000,261,0x0000,
0.0034178400,261,0xB483,
0.0034193600,261,0x5007,
0.0034209000,261,0xDE0A,
0.0034224400,261,0x5086,
0.0034239800,261,0xB182,
0.0034255200,261,0x6E00,
0.0034270400,261,0x6500,
0.0034294400,262,0x0000,
0.0034309800,262,0xCE03,
0.0034325200,262,0x9408,
0.0034340600,262,0x350A,
0.0034356000,262,0x2E86,
0.0034371200,262,0x6502,
0.0034386600,262,0x4600,
0.0034402000,262,0x5600,
0.0034426000,263,0x0000,
0.0034441400,263,0x04C0,
0.0034456800,263,0x3C20,
0.0034472000,263,0xFB82,
0.0034487400,263,0x3302,
0.0034502800,263,0xA541,
0.0034518200,263,0x9300,
0.0034533600,263,0x8800,
0.0034559400,264,0x0000,
0.0034574800,264,0x1601,
0.0034590200,264,0x1704,
0.0034605600,264,0x3989,
0.0034620800,264,0x0A0A,
0.0034636200,264,0x5086,
0.0034651600,264,0x0281,
0.0034667000,264,0xEF80,
0.0034691000,265,0x0000,
0.0034706400,265,0x1B01,
0.0034721600,265,0x2F84,
0.0034737000,265,0x8909,
0.0034752400,265,0x490A,
0.0034767800,265,0x2E85,
0.0034783200,265,0xA381,
0.0034798400,265,0xCD00,
0.0034822600,266,0x0000,
0.0034837800,266,0x1F01,
0.0034853200,266,0x5304,
0.0034868600,266,0xC689,
0.0034884000,266,0x898A,
0.0034899400,266,0x0D05,
0.0034914600,266,0x5E81,
0.0034930000,266,0xA180,
0.0034954000,267,0x0000,
0.0034969400,267,0x2601,
0.0034984800,267,0x7905,
0.0035000000,267,0x1C09,
0.0035015400,267,0xCA89,
0.0035030800,267,0xCA85,
0.0035046200,267,0x1C01,
0.0035061600,267,0x7900,
0.0035085600,268,0x0000,
0.0035101000,268,0x2C01,
0.0035116200,268,0xA185,
0.0035131600,268,0x5E8A,
0.0035147000,268,0x0D09,
0.0035162400,268,0x8984,
0.0035177800,268,0xC681,
0.0035193000,268,0x5300,
0.0035217000,269,0x0000,
0.0035232400,269,0x3501,
0.0035247800,269,0xCD05,
0.0035263200,269,0xA38A,
0.0035278600,269,0x2E89,
0.0035293800,269,0x4904,
0.0035309200,269,0x8901,
0.0035324600,269,0x2F80,
0.0035348600,270,0x0000,
0.0035364000,270,0x3F81,
0.0035379400,270,0xEF86,
0.0035394600,270,0x028A,
0.0035410000,270,0x5089,
0.0035425400,270,0x0A04,
0.0035440800,270,0x3981,
0.0035456200,270,0x1700,
0.0035480200,271,0x0000,
0.0035495400,271,0x4B82,
0.0035510800,271,0x2006,
0.0035526200,271,0x4C0A,
0.0035541600,271,0x9508,
0.0035557000,271,0xCC03,
0.0035572200,271,0xEE00,
0.0035587600,271,0xF080,
0.0035611600,272,0x0000,
0.0035627000,272,0x5982,
0.0035642400,272,0x5306,
0.0035657800,272,0x980A,
0.0035673000,272,0x9508,
0.0035688400,272,0x7083,
0.0035703800,272,0xB780,
0.0035719200,272,0xD480,
0.0035743200,273,0x0000,
0.0035758600,273,0x6902,
0.0035773800,273,0x8986,
0.0035789200,273,0xE60A,
0.0035804600,273,0xB808,
0.0035820000,273,0x3503,
0.0035835400,273,0x7180,
0.0035850600,273,0xBA80,
0.0035874600,274,0x0000,
0.0035890000,274,0x7A82,
0.0035905400,274,0xC307,
0.0035920800,274,0x368A,
0.0035936200,274,0xB807,
0.0035951400,274,0xDE03,
0.0035966800,274,0x2F80,
0.0035982200,274,0xA300,
0.0036006200,275,0x0000,
0.0036021600,275,0x8E02,
0.0036037000,275,0xF087,
0.0036052200,275,0x890A,
0.0036067600,275,0xB807,
0.0036083000,275,0x8902,
0.0036098400,275,0xF080,
0.0036113800,275,0x8E00,
0.0036137800,276,0x0000,
0.0036153000,276,0xA303,
0.0036168400,276,0x2F87,
0.0036183800,276,0xDE0A,
0.0036199200,276,0xB807,
0.0036214600,276,0x3682,
0.0036229800,276,0xC300,
0.0036245200,276,0x7A80,
0.0036269200,277,0x0000,
0.0036284600,277,0xBA83,
0.0036300000,277,0x7188,
0.0036315400,277,0x350A,
0.0036330600,277,0xB806,
0.0036346000,277,0xE602,
0.0036361400,277,0x8980,
0.0036376800,277,0x6900,
0.0036400800,278,0x0000,
0.0036416200,278,0xD483,
0.0036431400,278,0xB788,
0.0036446800,278,0x708A,
0.0036462200,278,0x9506,
0.0036477600,278,0x9802,
0.0036493000,278,0x5300,
0.0036508200,278,0x5980,
0.0036532200,279,0x0000,
0.0036547600,279,0x0500,
0.0036563000,279,0x3FE1,
0.0036578400,279,0x04E2,
0.0036593800,279,0x4282,
0.0036609000,279,0xBF81,
0.0036624400,279,0x9FA0,
0.0036639800,279,0x8E40,
0.0036665800,280,0x0000,
0.0036681000,280,0x1701,
0.0036696400,280,0x1F04,
0.0036711800,280,0x6089,
0.0036727200,280,0x690A,
0.0036742600,280,0xB806,
0.0036757800,280,0x3302,
0.0036773200,280,0x0780,
0.0036797200,281,0x0000,
0.0036812600,281,0x1B01,
0.0036828000,281,0x3804,
0.0036843400,281,0x9D09,
0.0036858600,281,0xAA0A,
0.0036874000,281,0x9505,
0.0036889400,281,0xD281,
0.0036904800,281,0xD880,
0.0036928800,282,0x0000,
0.0036944200,282,0x2081,
0.0036959400,282,0x5C84,
0.0036974800,282,0xF109,
0.0036990200,282,0xEB8A,
0.0037005600,282,0x7285,
0.0037021000,282,0x8C01,
0.0037036200,282,0xAC00,
0.0037060200,283,0x0000,
0.0037075600,283,0x2801,
0.0037091000,283,0x8305,
0.0037106400,283,0x320A,
0.0037121800,283,0x2E8A,
0.0037137000,283,0x2E85,
0.0037152400,283,0x3201,
0.0037167800,283,0x8300,
0.0037191800,284,0x0000,
0.0037207200,284,0x2E01,
0.0037222600,284,0xAC05,
0.0037237800,284,0x8C0A,
0.0037253200,284,0x7289,
0.0037268600,284,0xEB84,
0.0037284000,284,0xF101,
0.0037299400,284,0x5C80,
0.0037323400,285,0x0000,
0.0037338600,285,0x3781,
0.0037354000,285,0xD885,
0.0037369400,285,0xD28A,
0.0037384800,285,0x9509,
0.0037400200,285,0xAA04,
0.0037415400,285,0x9D01,
0.0037430800,285,0x3800,
0.0037454800,286,0x0000,
0.0037470200,286,0x4282,
0.0037485600,286,0x0786,
0.0037501000,286,0x330A,
0.0037516400,286,0xB809,
0.0037531600,286,0x6904,
0.0037547000,286,0x6081,
0.0037562400,286,0x1F00,
0.0037586400,287,0x0000,
0.0037601800,287,0x4F02,
0.0037617000,287,0x3906,
0.0037632400,287,0x7E8A,
0.0037647800,287,0xFE09,
0.0037663200,287,0x0A04,
0.0037678600,287,0x1380,
0.0037694000,287,0xFF80,
0.0037718000,288,0x0000,
0.0037733200,288,0x5D02,
0.0037748600,288,0x6086,
0.0037764000,288,0xCB8A,
0.0037779400,288,0xFE08,
0.0037794800,288,0xCC03,
0.0037810000,288,0xC980,
0.0037825400,288,0xDB00,
0.0037849400,289,0x0000,
0.0037864800,289,0x6D02,
0.0037880200,289,0x9787,
0.0037895600,289,0x1B8B,
0.0037910800,289,0x2188,
0.0037926200,289,0x7083,
0.0037941600,289,0x8300,
0.0037957000,289,0xC100,
0.0037981000,290,0x0000,
0.0037996400,290,0x7F02,
0.0038011600,290,0xD207,
0.0038027000,290,0x6D0B,
0.0038042400,290,0x2188,
0.0038057800,290,0x1803,
0.0038073000,290,0x5000,
0.0038088400,290,0xA900,
0.0038112400,291,0x0000,
0.0038127800,291,0x9303,
0.0038143200,291,0x0F87,
0.0038158600,291,0xC18B,
0.0038174000,291,0x4587,
0.0038189200,291,0xC183,
0.0038204600,291,0x0F80,
0.0038220000,291,0x9300,
0.0038244000,292,0x0000,
0.0038259400,292,0xA903,
0.0038274800,292,0x5008,
0.0038290000,292,0x180B,
0.0038305400,292,0x2187,
0.0038320800,292,0x6D02,
0.0038336200,292,0xD200,
0.0038351600,292,0x7F00,
0.0038375600,293,0x0000,
0.0038390800,293,0xC103,
0.0038406200,293,0x8308,
0.0038421600,293,0x708B,
0.0038437000,293,0x2187,
0.0038452400,293,0x1B82,
0.0038467600,293,0x9780,
0.0038483000,293,0x6D00,
0.0038507000,294,0x0000,
0.0038522400,294,0xDB03,
0.0038537800,294,0xC988,
0.0038553200,294,0xCC0A,
0.0038568400,294,0xFE06,
0.0038583800,294,0xCB82,
0.0038599200,294,0x6080,
0.0038614600,294,0x5D00,
0.0038638600,295,0x0000,
0.0038654000,295,0x0500,
0.0038669200,295,0x41C1,
0.0038684600,295,0x09A2,
0.0038700000,295,0x5A42,
0.0038715400,295,0xDA61,
0.0038730800,295,0xAC60,
0.0038746000,295,0x9180,
0.0038772000,296,0x0000,
0.0038787400,296,0x1801,
0.0038802800,296,0x2704,
0.0038818000,296,0x7489,
0.0038833400,296,0xAA0B,
0.0038848800,296,0x2186,
0.0038864200,296,0x6502,
0.0038879600,296,0x1380,
0.0038903600,297,0x0000,
0.0038918800,297,0x1C01,
0.0038934200,297,0x4A04,
0.0038949600,297,0xC689,
0.0038965000,297,0xEB8A,
0.0038980400,297,0xFE06,
0.0038995600,297,0x0281,
0.0039011000,297,0xE400,
0.0039035000,298,0x0000,
0.0039050400,298,0x2281,
0.0039065800,298,0x6585,
0.0039081200,298,0x1C0A,
0.0039096400,298,0x508A,
0.0039111800,298,0xB805,
0.0039127200,298,0xBA81,
0.0039142600,298,0xB700,
0.0039166600,299,0x0000,
0.0039182000,299,0x2801,
0.0039197200,299,0x8D05,
0.0039212600,299,0x5E8A,
0.0039228000,299,0x950A,
0.0039243400,299,0x9505,
0.0039258800,299,0x5E81,
0.0039274000,299,0x8D00,
0.0039298000,300,0x0000,
0.0039313400,300,0x3001,
0.0039328800,300,0xB705,
0.0039344200,300,0xBA8A,
0.0039359600,300,0xB80A,
0.0039374800,300,0x5085,
0.0039390200,300,0x1C01,
0.0039405600,300,0x6580,
0.0039429600,301,0x0000,
0.0039445000,301,0x3A01,
0.0039460400,301,0xE406,
0.0039475600,301,0x028A,
0.0039491000,301,0xFE09,
0.0039506400,301,0xEB84,
0.0039521800,301,0xC681,
0.0039537200,301,0x4A00,
0.0039561200,302,0x0000,
0.0039576400,302,0x4582,
0.0039591800,302,0x1386,
0.0039607200,302,0x650B,
0.0039622600,302,0x2189,
0.0039638000,302,0xAA04,
0.0039653200,302,0x7481,
0.0039668600,302,0x2700,
0.0039692600,303,0x0000,
0.0039708000,303,0x5282,
0.0039723400,303,0x4606,
0.0039738800,303,0xB18B,
0.0039754000,303,0x6989,
0.0039769400,303,0x6904,
0.0039784800,303,0x2681,
0.0039800200,303,0x0700,
0.0039824200,304,0x0000,
0.0039839600,304,0x6102,
0.0039854800,304,0x7B87,
0.0039870200,304,0x008B,
0.0039885600,304,0x6989,
0.0039901000,304,0x0A03,
0.0039916400,304,0xEE00,
0.0039931800,304,0xE200,
0.0039955600,305,0x0000,
0.0039971000,305,0x6D02,
0.0039986400,305,0xB487,
0.0040001800,305,0x518B,
0.0040017200,305,0x8E08,
0.0040032600,305,0xAD03,
0.0040047800,305,0xA580,
0.0040063200,305,0xC780,
0.0040087200,306,0x0000,
0.0040102600,306,0x8402,
0.0040118000,306,0xE107,
0.0040133200,306,0xC18B,
0.0040148600,306,0xB308,
0.0040164000,306,0x5303,
0.0040179400,306,0x6100,
0.0040194800,306,0xAE80,
0.0040218800,307,0x0000,
0.0040234000,307,0x9803,
0.0040249400,307,0x1F88,
0.0040264800,307,0x180B,
0.0040280200,307,0xB308,
0.0040295600,307,0x1803,
0.0040310800,307,0x1F80,
0.0040326200,307,0x9800,
0.0040350200,308,0x0000,
0.0040365600,308,0xAE83,
0.0040381000,308,0x6108,
0.0040396400,308,0x530B,
0.0040411800,308,0xB307,
0.0040427000,308,0xC182,
0.0040442400,308,0xE100,
0.0040457800,308,0x8400,
0.0040481800,309,0x0000,
0.0040497200,309,0xC783,
0.0040512600,309,0xA588,
0.0040527800,309,0xAD0B,
0.0040543200,309,0x8E07,
0.0040558600,309,0x5182,
0.0040574000,309,0xB480,
0.0040589400,309,0x6D00,
0.0040613400,310,0x0000,
0.0040628600,310,0xE203,
0.0040644000,310,0xEE09,
0.0040659400,310,0x0A0B,
0.0040674800,310,0x6987,
0.0040690200,310,0x0082,
0.0040705400,310,0x7B80,
0.0040720800,310,0x6100,
0.0040744800,311,0x0000,
0.0040760200,311,0x0540,
0.0040775600,311,0x43C1,
0.0040791000,311,0x1342,
0.0040806200,311,0x6A82,
0.0040821600,311,0xECC1,
0.0040837000,311,0xB980,
0.0040852400,311,0x94C0,
0.0040878200,312,0x0000,
0.0040893600,312,0x1801,
0.0040909000,312,0x2F84,
0.0040924400,312,0x9D09,
0.0040939800,312,0xEB8B,
0.0040955000,312,0x8E06,
0.0040970400,312,0x7E82,
0.0040985800,312,0x2000,
0.0041009800,313,0x0000,
0.0041025200,313,0x1D81,
0.0041040600,313,0x5304,
0.0041055800,313,0xDB8A,
0.0041071200,313,0x508B,
0.0041086600,313,0x6986,
0.0041102000,313,0x3301,
0.0041117400,313,0xEF80,
0.0041141400,314,0x0000,
0.0041156600,314,0x2281,
0.0041172000,314,0x6F05,
0.0041187400,314,0x320A,
0.0041202800,314,0x950B,
0.0041218200,314,0x2185,
0.0041233400,314,0xD281,
0.0041248800,314,0xC200,
0.0041272800,315,0x0000,
0.0041288200,315,0x2A01,
0.0041303600,315,0x9705,
0.0041319000,315,0x8C0A,
0.0041334200,315,0xDB0A,
0.0041349600,315,0xDB05,
0.0041365000,315,0x8C01,
0.0041380400,315,0x9700,
0.0041404400,316,0x0000,
0.0041419800,316,0x3281,
0.0041435000,316,0xC205,
0.0041450400,316,0xD28B,
0.0041465800,316,0x218A,
0.0041481200,316,0x9505,
0.0041496600,316,0x3201,
0.0041511800,316,0x6F00,
0.0041535800,317,0x0000,
0.0041551200,317,0x3C81,
0.0041566600,317,0xEF86,
0.0041582000,317,0x330B,
0.0041597400,317,0x698A,
0.0041612600,317,0x5084,
0.0041628000,317,0xDB81,
0.0041643400,317,0x5300,
0.0041667400,318,0x0000,
0.0041682800,318,0x4582,
0.0041698200,318,0x2006,
0.0041713400,318,0x7E8B,
0.0041728800,318,0x8E09,
0.0041744200,318,0xEB84,
0.0041759600,318,0x9D01,
0.0041775000,318,0x2F80,
0.0041799000,319,0x0000,
0.0041814200,319,0x5282,
0.0041829600,319,0x5306,
0.0041845000,319,0xE60B,
0.0041860400,319,0xB309,
0.0041875800,319,0xAA04,
0.0041891000,319,0x4D01,
0.0041906400,319,0x0F00,
0.0041930400,320,0x0000,
0.0041945800,320,0x6102,
0.0041961200,320,0x8987,
0.0041976600,320,0x368B,
0.0041991800,320,0xD789,
0.0042007200,320,0x4904,
0.0042022600,320,0x0080,
0.0042038000,320,0xE900,
0.0042062000,321,0x0000,
0.0042077400,321,0x7182,
0.0042092600,321,0xC307,
0.0042108000,321,0x890B,
0.0042123400,321,0xFD08,
0.0042138800,321,0xEB03,
0.0042154200,321,0xB780,
0.0042169400,321,0xCE00,
0.0042193400,322,0x0000,
0.0042208800,322,0x8402,
0.0042224200,322,0xFF87,
0.0042239600,322,0xDE0C,
0.0042255000,322,0x2288,
0.0042270200,322,0xAD03,
0.0042285600,322,0x7180,
0.0042301000,322,0xB480,
0.0042325000,323,0x0000,
0.0042340400,323,0x9D83,
0.0042355800,323,0x3F88,
0.0042371000,323,0x530C,
0.0042386400,323,0x2288,
0.0042401800,323,0x5303,
0.0042417200,323,0x3F80,
0.0042432600,323,0x9D80,
0.0042456600,324,0x0000,
0.0042471800,324,0xB483,
0.0042487200,324,0x7188,
0.0042502600,324,0xAD0C,
0.0042518000,324,0x2287,
0.0042533400,324,0xDE02,
0.0042548800,324,0xFF80,
0.0042564000,324,0x8400,
0.0042588000,325,0x0000,
0.0042603400,325,0xCE03,
0.0042618800,325,0xB788,
0.0042634200,325,0xEB0B,
0.0042649400,325,0xFD07,
0.0042664800,325,0x8902,
0.0042680200,325,0xC300,
0.0042695600,325,0x7180,
0.0042719600,326,0x0000,
0.0042735000,326,0xE904,
0.0042750400,326,0x0089,
0.0042765600,326,0x490B,
0.0042781000,326,0xD787,
0.0042796400,326,0x3682,
0.0042811800,326,0x8980,
0.0042827000,326,0x6100,
0.0042851000,327,0x0000,
0.0042866400,327,0x0540,
0.0042881800,327,0x45C1,
0.0042897200,327,0x1822,
0.0042912600,327,0x7AE3,
0.0042927800,327,0x08A1,
0.0042943200,327,0xC020,
0.0042958600,327,0x9820,
0.0042984600,328,0x0000,
0.0043000000,328,0x1981,
0.0043015200,328,0x3804,
0.0043030600,328,0xB18A,
0.0043046000,328,0x508B,
0.0043061400,328,0xFD06,
0.0043076800,328,0xB182,
0.0043092000,328,0x2C80,
0.0043116000,329,0x0000,
0.0043131400,329,0x1D81,
0.0043146800,329,0x5305,
0.0043162200,329,0x068A,
0.0043177600,329,0x950B,
0.0043192800,329,0xB306,
0.0043208200,329,0x4C01,
0.0043223600,329,0xFB80,
0.0043247600,330,0x0000,
0.0043263000,330,0x2401,
0.0043278400,330,0x7905,
0.0043293600,330,0x5E8A,
0.0043309000,330,0xDB0B,
0.0043324400,330,0x6986,
0.0043339800,330,0x0281,
0.0043355000,330,0xCD00,
0.0043379000,331,0x0000,
0.0043394400,331,0x2C01,
0.0043409800,331,0xA185,
0.0043425200,331,0xA38B,
0.0043440600,331,0x218B,
0.0043456000,331,0x2185,
0.0043471200,331,0xA381,
0.0043486600,331,0xA180,
0.0043510600,332,0x0000,
0.0043526000,332,0x3281,
0.0043541400,332,0xCD06,
0.0043556800,332,0x028B,
0.0043572000,332,0x698A,
0.0043587400,332,0xDB05,
0.0043602800,332,0x5E81,
0.0043618200,332,0x7900,
0.0043642200,333,0x0000,
0.0043657600,333,0x3C81,
0.0043672800,333,0xFB86,
0.0043688200,333,0x4C0B,
0.0043703600,333,0xB30A,
0.0043719000,333,0x9505,
0.0043734400,333,0x0681,
0.0043749600,333,0x5300,
0.0043773600,334,0x0000,
0.0043789000,334,0x4882,
0.0043804400,334,0x2C86,
0.0043819800,334,0xB18B,
0.0043835200,334,0xFD0A,
0.0043850400,334,0x5084,
0.0043865800,334,0xB181,
0.0043881200,334,0x3800,
0.0043905200,335,0x0000,
0.0043920600,335,0x5602,
0.0043936000,335,0x6087,
0.0043951200,335,0x008C,
0.0043966600,335,0x2289,
0.0043982000,335,0xEB84,
0.0043997400,335,0x6081,
0.0044012800,335,0x1700,
0.0044036800,336,0x0000,
0.0044052000,336,0x6502,
0.0044067400,336,0x9787,
0.0044082800,336,0x6D0C,
0.0044098200,336,0x4889,
0.0044113600,336,0x8984,
0.0044128800,336,0x1380,
0.0044144200,336,0xF080,
0.0044168200,337,0x0000,
0.0044183600,337,0x7602,
0.0044199000,337,0xD207,
0.0044214400,337,0xC18C,
0.0044229600,337,0x6E89,
0.0044245000,337,0x2983,
0.0044260400,337,0xC980,
0.0044275800,337,0xD480,
0.0044299800,338,0x0000,
0.0044315200,338,0x8883,
0.0044330400,338,0x0F88,
0.0044345800,338,0x180C,
0.0044361200,338,0x6E88,
0.0044376600,338,0xCC03,
0.0044392000,338,0x9400,
0.0044407200,338,0xBA80,
0.0044431200,339,0x0000,
0.0044446600,339,0x9D83,
0.0044462000,339,0x5008,
0.0044477400,339,0x708C,
0.0044492800,339,0x9508,
0.0044508000,339,0x7083,
0.0044523400,339,0x5000,
0.0044538800,339,0x9D80,
0.0044562800,340,0x0000,
0.0044578200,340,0xBA83,
0.0044593600,340,0x9408,
0.0044608800,340,0xCC0C,
0.0044624200,340,0x6E88,
0.0044639600,340,0x1803,
0.0044655000,340,0x0F80,
0.0044670400,340,0x8880,
0.0044694400,341,0x0000,
0.0044709600,341,0xD483,
0.0044725000,341,0xC989,
0.0044740400,341,0x298C,
0.0044755800,341,0x6E87,
0.0044771200,341,0xC182,
0.0044786400,341,0xD200,
0.0044801800,341,0x7600,
0.0044825800,342,0x0000,
0.0044841200,342,0xF084,
0.0044856600,342,0x1389,
0.0044872000,342,0x898C,
0.0044887200,342,0x4887,
0.0044902600,342,0x6D02,
0.0044918000,342,0x9780,
0.0044933400,342,0x6500,
0.0044957400,343,0x0000,
0.0044972800,343,0x0580,
0.0044988000,343,0x45C1,
0.0045003400,343,0x1D22,
0.0045018800,343,0x8BA3,
0.0045034200,343,0x2541,
0.0045049600,343,0xCDA0,
0.0045064800,343,0x9B80,
0.0045090800,344,0x0000,
0.0045106200,344,0x1981,
0.0045121600,344,0x3804,
0.0045136800,344,0xC68A,
0.0045152200,344,0x950C,
0.0045167600,344,0x4886,
0.0045183000,344,0xCB82,
0.0045198400,344,0x3900,
0.0045222400,345,0x0000,
0.0045237800,345,0x1F01,
0.0045253000,345,0x5C85,
0.0045268400,345,0x1C0A,
0.0045283800,345,0xDB0C,
0.0045299200,345,0x2286,
0.0045314400,345,0x7E82,
0.0045329800,345,0x0780,
0.0045353800,346,0x0000,
0.0045369200,346,0x2601,
0.0045384600,346,0x8305,
0.0045400000,346,0x758B,
0.0045415400,346,0x218B,
0.0045430600,346,0xD786,
0.0045446000,346,0x1A81,
0.0045461400,346,0xD880,
0.0045485400,347,0x0000,
0.0045500800,347,0x2C01,
0.0045516000,347,0xAC05,
0.0045531400,347,0xBA8B,
0.0045546800,347,0x8E0B,
0.0045562200,347,0x8E05,
0.0045577600,347,0xBA81,
0.0045593000,347,0xAC00,
0.0045617000,348,0x0000,
0.0045632200,348,0x3501,
0.0045647600,348,0xD886,
0.0045663000,348,0x1A8B,
0.0045678400,348,0xD78B,
0.0045693800,348,0x2185,
0.0045709000,348,0x7581,
0.0045724400,348,0x8300,
0.0045748400,349,0x0000,
0.0045763800,349,0x3F82,
0.0045779200,349,0x0786,
0.0045794600,349,0x7E8C,
0.0045809800,349,0x228A,
0.0045825200,349,0xDB05,
0.0045840600,349,0x1C01,
0.0045856000,349,0x5C80,
0.0045880000,350,0x0000,
0.0045895400,350,0x4B82,
0.0045910600,350,0x3906,
0.0045926000,350,0xCB8C,
0.0045941400,350,0x488A,
0.0045956800,350,0x9504,
0.0045972200,350,0xC681,
0.0045987400,350,0x3800,
0.0046011400,351,0x0000,
0.0046026800,351,0x5982,
0.0046042200,351,0x6E07,
0.0046057600,351,0x368C,
0.0046073000,351,0x950A,
0.0046088200,351,0x2E84,
0.0046103600,351,0x7481,
0.0046119000,351,0x1700,
0.0046143000,352,0x0000,
0.0046158400,352,0x6902,
0.0046173800,352,0xA607,
0.0046189000,352,0x890C,
0.0046204400,352,0xBB89,
0.0046219800,352,0xCA84,
0.0046235200,352,0x2680,
0.0046250600,352,0xF800,
0.0046274600,353,0x0000,
0.0046289800,353,0x7A82,
0.0046305200,353,0xE107,
0.0046320600,353,0xFB0C,
0.0046336000,353,0xE289,
0.0046351400,353,0x6903,
0.0046366600,353,0xEE00,
0.0046382000,353,0xDB00,
0.0046406000,354,0x0000,
0.0046421400,354,0x8E03,
0.0046436800,354,0x1F88,
0.0046452200,354,0x530C,
0.0046467400,354,0xE289,
0.0046482800,354,0x0A03,
0.0046498200,354,0xA580,
0.0046513600,354,0xBA80,
0.0046537600,355,0x0000,
0.0046553000,355,0xA303,
0.0046568200,355,0x6108,
0.0046583600,355,0xAD0C,
0.0046599000,355,0xE288,
0.0046614400,355,0xAD03,
0.0046629800,355,0x6100,
0.0046645000,355,0xA300,
0.0046669000,356,0x0000,
0.0046684400,356,0xBA83,
0.0046699800,356,0xA589,
0.0046715200,356,0x0A0C,
0.0046730600,356,0xE288,
0.0046745800,356,0x5303,
0.0046761200,356,0x1F80,
0.0046776600,356,0x8E00,
0.0046800600,357,0x0000,
0.0046816000,357,0xDB03,
0.0046831400,357,0xEE09,
0.0046846600,357,0x690C,
0.0046862000,357,0xE287,
0.0046877400,357,0xFB02,
0.0046892800,357,0xE100,
0.0046908200,357,0x7A80,
0.0046932200,358,0x0000,
0.0046947400,358,0xF804,
0.0046962800,358,0x2689,
0.0046978200,358,0xCA8C,
0.0046993600,358,0xBB87,
0.0047009000,358,0x8902,
0.0047024200,358,0xA600,
0.0047039600,358,0x6900,
0.0047063600,359,0x0000,
0.0047079000,359,0x0580,
0.0047094400,359,0x47C1,
0.0047109800,359,0x2242,
0.0047125000,359,0x9CA3,
0.0047140400,359,0x38A1,
0.0047155800,359,0xD460,
0.0047171200,359,0x9EE0,
0.0047197000,360,0x0000,
0.0047212400,360,0x1B01,
0.0047227800,360,0x4104,
0.0047243200,360,0xDB8A,
0.0047258600,360,0xB80C,
0.0047273800,360,0xBB87,
0.0047289200,360,0x0082,
0.0047304600,360,0x4600,
0.0047328600,361,0x0000,
0.0047344000,361,0x1F01,
0.0047359400,361,0x6585,
0.0047374600,361,0x320B,
0.0047390000,361,0x218C,
0.0047405400,361,0x6E86,
0.0047420800,361,0x9802,
0.0047436200,361,0x1380,
0.0047460200,362,0x0000,
0.0047475400,362,0x2601,
0.0047490800,362,0x8D05,
0.0047506200,362,0x8C0B,
0.0047521600,362,0x698C,
0.0047537000,362,0x2286,
0.0047552200,362,0x3301,
0.0047567600,362,0xE400,
0.0047591600,363,0x0000,
0.0047607000,363,0x2E01,
0.0047622400,363,0xB705,
0.0047637800,363,0xEA0B,
0.0047653000,363,0xD78B,
0.0047668400,363,0xD785,
0.0047683800,363,0xEA01,
0.0047699200,363,0xB700,
0.0047723200,364,0x0000,
0.0047738600,364,0x3781,
0.0047753800,364,0xE406,
0.0047769200,364,0x330C,
0.0047784600,364,0x228B,
0.0047800000,364,0x6985,
0.0047815400,364,0x8C01,
0.0047830800,364,0x8D00,
0.0047854800,365,0x0000,
0.0047870000,365,0x3F82,
0.0047885400,365,0x1386,
0.0047900800,365,0x980C,
0.0047916200,365,0x6E8B,
0.0047931400,365,0x2185,
0.0047946800,365,0x3201,
0.0047962200,365,0x6580,
0.0047986200,366,0x0000,
0.0048001600,366,0x4B82,
0.0048017000,366,0x4607,
0.0048032200,366,0x008C,
0.0048047600,366,0xBB8A,
0.0048063000,366,0xB804,
0.0048078400,366,0xDB81,
0.0048093800,366,0x4100,
0.0048117800,367,0x0000,
0.0048133000,367,0x5982,
0.0048148400,367,0x7B87,
0.0048163800,367,0x518C,
0.0048179200,367,0xE28A,
0.0048194600,367,0x7284,
0.0048210000,367,0x8901,
0.0048225200,367,0x1F00,
0.0048249200,368,0x0000,
0.0048264600,368,0x6902,
0.0048280000,368,0xB487,
0.0048295400,368,0xC18D,
0.0048310800,368,0x0A0A,
0.0048326000,368,0x0D04,
0.0048341400,368,0x3980,
0.0048356800,368,0xFF80,
0.0048380800,369,0x0000,
0.0048396200,369,0x7A82,
0.0048411600,369,0xF088,
0.0048426800,369,0x180D,
0.0048442200,369,0x3189,
0.0048457600,369,0xAA04,
0.0048473000,369,0x0080,
0.0048488400,369,0xDB00,
0.0048512400,370,0x0000,
0.0048527600,370,0x9303,
0.0048543000,370,0x2F88,
0.0048558400,370,0x708D,
0.0048573800,370,0x5989,
0.0048589000,370,0x4903,
0.0048604400,370,0xB780,
0.0048619800,370,0xC100,
0.0048643800,371,0x0000,
0.0048659200,371,0xA903,
0.0048674600,371,0x7188,
0.0048690000,371,0xEB0D,
0.0048705200,371,0x5988,
0.0048720600,371,0xEB03,
0.0048736000,371,0x7180,
0.0048751400,371,0xA900,
0.0048775400,372,0x0000,
0.0048790800,372,0xC103,
0.0048806000,372,0xB789,
0.0048821400,372,0x490D,
0.0048836800,372,0x5988,
0.0048852200,372,0x7083,
0.0048867600,372,0x2F80,
0.0048882800,372,0x9300,
0.0048906800,373,0x0000,
0.0048922200,373,0xDB04,
0.0048937600,373,0x0089,
0.0048953000,373,0xAA0D,
0.0048968400,373,0x3188,
0.0048983600,373,0x1802,
0.0048999000,373,0xF080,
0.0049014400,373,0x7A80,
0.0049038400,374,0x0000,
0.0049053800,374,0xFF84,
0.0049069200,374,0x398A,
0.0049084400,374,0x0D0D,
0.0049099800,374,0x0A07,
0.0049115200,374,0xC182,
0.0049130600,374,0xB480,
0.0049146000,374,0x6900,
0.0049170000,375,0x0000,
0.0049185200,375,0x05C0,
0.0049200600,375,0x49C1,
0.0049216000,375,0x2742,
0.0049231400,375,0xA543,
0.0049246800,375,0x4C61,
0.0049262000,375,0xDB40,
0.0049277400,375,0x9EE0,
0.0049303400,376,0x0000,
0.0049318800,376,0x1B01,
0.0049334000,376,0x4A04,
0.0049349400,376,0xF10A,
0.0049364800,376,0xFE0D,
0.0049380200,376,0x0A07,
0.0049395600,376,0x1B82,
0.0049410800,376,0x5300,
0.0049434800,377,0x0000,
0.0049450200,377,0x2081,
0.0049465600,377,0x6F05,
0.0049481000,377,0x488B,
0.0049496400,377,0x698C,
0.0049511600,377,0xBB86,
0.0049527000,377,0xB182,
0.0049542400,377,0x2000,
0.0049566400,378,0x0000,
0.0049581800,378,0x2601,
0.0049597200,378,0x9705,
0.0049612400,378,0xA38B,
0.0049627800,378,0xB30C,
0.0049643200,378,0x6E86,
0.0049658600,378,0x4C01,
0.0049674000,378,0xE400,
0.0049698000,379,0x0000,
0.0049713200,379,0x2E01,
0.0049728600,379,0xB706,
0.0049744000,379,0x028C,
0.0049759400,379,0x228C,
0.0049774800,379,0x2286,
0.0049790000,379,0x0281,
0.0049805400,379,0xB700,
0.0049829400,380,0x0000,
0.0049844800,380,0x3781,
0.0049860200,380,0xE406,
0.0049875600,380,0x4C0C,
0.0049890800,380,0x6E8B,
0.0049906200,380,0xB305,
0.0049921600,380,0xA381,
0.0049937000,380,0x9700,
0.0049961000,381,0x0000,
0.0049976400,381,0x4282,
0.0049991600,381,0x2006,
0.0050007000,381,0xB18C,
0.0050022400,381,0xBB8B,
0.0050037800,381,0x6985,
0.0050053200,381,0x4881,
0.0050068400,381,0x6F00,
0.0050092400,382,0x0000,
0.0050107800,382,0x4F02,
0.0050123200,382,0x5307,
0.0050138600,382,0x1B8D,
0.0050154000,382,0x0A0A,
0.0050169200,382,0xFE04,
0.0050184600,382,0xF101,
0.0050200000,382,0x4A00,
0.0050224000,383,0x0000,
0.0050239400,383,0x5D02,
0.0050254800,383,0x7B87,
0.0050270000,383,0x6D0D,
0.0050285400,383,0x318A,
0.0050300800,383,0x9504,
0.0050316200,383,0x9D01,
0.0050331600,383,0x2700,
0.0050355600,384,0x0000,
0.0050370800,384,0x6D02,
0.0050386200,384,0xB487,
0.0050401600,384,0xDE0D,
0.0050417000,384,0x818A,
0.0050432400,384,0x2E84,
0.0050447600,384,0x4D00,
0.0050463000,384,0xFF80,
0.0050487000,385,0x0000,
0.0050502400,385,0x7F02,
0.0050517800,385,0xFF88,
0.0050533200,385,0x350D,
0.0050548400,385,0xAA09,
0.0050563800,385,0xCA84,
0.0050579200,385,0x0080,
0.0050594600,385,0xE200,
0.0050618600,386,0x0000,
0.0050634000,386,0x9303,
0.0050649200,386,0x3F88,
0.0050664600,386,0xAD0D,
0.0050680000,386,0xAA09,
0.0050695400,386,0x6903,
0.0050710800,386,0xB780,
0.0050726000,386,0xC780,
0.0050750000,387,0x0000,
0.0050765400,387,0xA903,
0.0050780800,387,0x7189,
0.0050796200,387,0x0A0D,
0.0050811600,387,0xD289,
0.0050826800,387,0x0A03,
0.0050842200,387,0x7180,
0.0050857600,387,0xA900,
0.0050881600,388,0x0000,
0.0050897000,388,0xC783,
0.0050912400,388,0xB789,
0.0050927800,388,0x690D,
0.0050943000,388,0xAA08,
0.0050958400,388,0xAD03,
0.0050973800,388,0x3F80,
0.0050989200,388,0x9300,
0.0051013200,389,0x0000,
0.0051028600,389,0xE204,
0.0051043800,389,0x0089,
0.0051059200,389,0xCA8D,
0.0051074600,389,0xAA08,
0.0051090000,389,0x3502,
0.0051105400,389,0xFF80,
0.0051120600,389,0x7F00,
0.0051144600,390,0x0000,
0.0051160000,390,0xFF84,
0.0051175400,390,0x4D0A,
0.0051190800,390,0x2E8D,
0.0051206200,390,0x8187,
0.0051221400,390,0xDE02,
0.0051236800,390,0xB480,
0.0051252200,390,0x6D00,
0.0051276200,391,0x0000,
0.0051291600,391,0x05C0,
0.0051307000,391,0x49C1,
0.0051322200,391,0x2C62,
0.0051337600,391,0xAE03,
0.0051353000,391,0x6A81,
0.0051368400,391,0xE240,
0.0051383800,391,0xA260,
0.0051409600,392,0x0000,
0.0051425000,392,0x1B01,
0.0051440400,392,0x4A05,
0.0051455800,392,0x068B,
0.0051471000,392,0x218D,
0.0051486400,392,0x5987,
0.0051501800,392,0x3682,
0.0051517200,392,0x5300,
0.0051541200,393,0x0000,
0.0051556600,393,0x2081,
0.0051571800,393,0x6F05,
0.0051587200,393,0x5E8B,
0.0051602600,393,0x8E0D,
0.0051618000,393,0x0A06,
0.0051633400,393,0xCB82,
0.0051648600,393,0x2000,
0.0051672600,394,0x0000,
0.0051688000,394,0x2801,
0.0051703400,394,0x9705,
0.0051718800,394,0xBA8B,
0.0051734200,394,0xFD0C,
0.0051749400,394,0xBB86,
0.0051764800,394,0x6501,
0.0051780200,394,0xEF80,
0.0051804200,395,0x0000,
0.0051819600,395,0x3001,
0.0051835000,395,0xC206,
0.0051850200,395,0x028C,
0.0051865600,395,0x488C,
0.0051881000,395,0x4886,
0.0051896400,395,0x0281,
0.0051911800,395,0xC200,
0.0051935800,396,0x0000,
0.0051951000,396,0x3781,
0.0051966400,396,0xEF86,
0.0051981800,396,0x650C,
0.0051997200,396,0xBB8B,
0.0052012600,396,0xFD05,
0.0052027800,396,0xBA81,
0.0052043200,396,0x9700,
0.0052067200,397,0x0000,
0.0052082600,397,0x4282,
0.0052098000,397,0x2006,
0.0052113400,397,0xCB8D,
0.0052128600,397,0x0A0B,
0.0052144000,397,0x8E05,
0.0052159400,397,0x5E81,
0.0052174800,397,0x6F00,
0.0052198800,398,0x0000,
0.0052214200,398,0x4F02,
0.0052229400,398,0x5307,
0.0052244800,398,0x368D,
0.0052260200,398,0x598B,
0.0052275600,398,0x2185,
0.0052291000,398,0x0681,
0.0052306200,398,0x4A00,
0.0052330200,399,0x0000,
0.0052345600,399,0x5D02,
0.0052361000,399,0x8987,
0.0052376400,399,0x890D,
0.0052391800,399,0xAA0A,
0.0052407000,399,0xB804,
0.0052422400,399,0xB181,
0.0052437800,399,0x2700,
0.0052461800,400,0x0000,
0.0052477200,400,0x6D02,
0.0052492600,400,0xC307,
0.0052507800,400,0xFB0D,
0.0052523200,400,0xD28A,
0.0052538600,400,0x5084,
0.0052554000,400,0x6081,
0.0052569400,400,0x0700,
0.0052593400,401,0x0000,
0.0052608600,401,0x7F02,
0.0052624000,401,0xFF88,
0.0052639400,401,0x530D,
0.0052654800,401,0xFB89,
0.0052670200,401,0xEB84,
0.0052685400,401,0x1380,
0.0052700800,401,0xE900,
0.0052724800,402,0x0000,
0.0052740200,402,0x9803,
0.0052755600,402,0x3F88,
0.0052771000,402,0xCC0E,
0.0052786200,402,0x2509,
0.0052801600,402,0x8983,
0.0052817000,402,0xC980,
0.0052832400,402,0xC780,
0.0052856400,403,0x0000,
0.0052871800,403,0xAE83,
0.0052887000,403,0x8309,
0.0052902400,403,0x298E,
0.0052917800,403,0x2509,
0.0052933200,403,0x2983,
0.0052948600,403,0x8300,
0.0052963800,403,0xAE80,
0.0052987800,404,0x0000,
0.0053003200,404,0xC783,
0.0053018600,404,0xC989,
0.0053034000,404,0x898E,
0.0053049400,404,0x2508,
0.0053064800,404,0xCC03,
0.0053080000,404,0x3F80,
0.0053095400,404,0x9800,
0.0053119400,405,0x0000,
0.0053134800,405,0xE904,
0.0053150200,405,0x1389,
0.0053165400,405,0xEB8D,
0.0053180800,405,0xFB88,
0.0053196200,405,0x5302,
0.0053211600,405,0xFF80,
0.0053227000,405,0x7F00,
0.0053251000,406,0x0001,
0.0053266400,406,0x0704,
0.0053281600,406,0x608A,
0.0053297000,406,0x508D,
0.0053312400,406,0xD287,
0.0053327800,406,0xFB02,
0.0053343000,406,0xC300,
0.0053358400,406,0x6D00,
0.0053382400,407,0x0000,
0.0053397800,407,0x05C0,
0.0053413200,407,0x4BE1,
0.0053428600,407,0x31A2,
0.0053444000,407,0xBF83,
0.0053459200,407,0x7EE1,
0.0053474600,407,0xE940,
0.0053490000,407,0xA5E0,
0.0053516000,408,0x0000,
0.0053531200,408,0x1C01,
0.0053546600,408,0x4A05,
0.0053562000,408,0x1C0B,
0.0053577400,408,0x698D,
0.0053592800,408,0xAA07,
0.0053608000,408,0x3682,
0.0053623400,408,0x6080,
0.0053647400,409,0x0000,
0.0053662800,409,0x2081,
0.0053678200,409,0x6F05,
0.0053693600,409,0x5E8B,
0.0053708800,409,0xB30D,
0.0053724200,409,0x3186,
0.0053739600,409,0xE602,
0.0053755000,409,0x2000,
0.0053779000,410,0x0000,
0.0053794400,410,0x2801,
0.0053809600,410,0x9705,
0.0053825000,410,0xBA8C,
0.0053840400,410,0x228C,
0.0053855800,410,0xE286,
0.0053871200,410,0x7E81,
0.0053886400,410,0xEF80,
0.0053910400,411,0x0000,
0.0053925800,411,0x3001,
0.0053941200,411,0xC206,
0.0053956600,411,0x1A8C,
0.0053972000,411,0x950C,
0.0053987200,411,0x9506,
0.0054002600,411,0x1A81,
0.0054018000,411,0xC200,
0.0054042000,412,0x0000,
0.0054057400,412,0x3A01,
0.0054072800,412,0xEF86,
0.0054088000,412,0x7E8C,
0.0054103400,412,0xE28C,
0.0054118800,412,0x2285,
0.0054134200,412,0xBA81,
0.0054149600,412,0x9700,
0.0054173600,413,0x0000,
0.0054188800,413,0x4582,
0.0054204200,413,0x2006,
0.0054219600,413,0xE60D,
0.0054235000,413,0x318B,
0.0054250400,413,0xB305,
0.0054265600,413,0x5E81,
0.0054281000,413,0x6F00,
0.0054305000,414,0x0000,
0.0054320400,414,0x5282,
0.0054335800,414,0x6087,
0.0054351200,414,0x368D,
0.0054366400,414,0xAA0B,
0.0054381800,414,0x6985,
0.0054397200,414,0x1C01,
0.0054412600,414,0x4A00,
0.0054436600,415,0x0000,
0.0054452000,415,0x6102,
0.0054467200,415,0x9787,
0.0054482600,415,0xA50D,
0.0054498000,415,0xFB8A,
0.0054513400,415,0xFE04,
0.0054528800,415,0xC681,
0.0054544000,415,0x2F80,
0.0054568000,416,0x0000,
0.0054583400,416,0x7182,
0.0054598800,416,0xD208,
0.0054614200,416,0x180E,
0.0054629600,416,0x250A,
0.0054644800,416,0x9504,
0.0054660200,416,0x7481,
0.0054675600,416,0x0700,
0.0054699600,417,0x0000,
0.0054715000,417,0x8403,
0.0054730400,417,0x0F88,
0.0054745600,417,0x708E,
0.0054761000,417,0x4E8A,
0.0054776400,417,0x0D04,
0.0054791800,417,0x2680,
0.0054807200,417,0xE900,
0.0054831200,418,0x0000,
0.0054846400,418,0x9803,
0.0054861800,418,0x5008,
0.0054877200,418,0xEB0E,
0.0054892600,418,0x7889,
0.0054908000,418,0xAA03,
0.0054923200,418,0xDB80,
0.0054938600,418,0xCE00,
0.0054962600,419,0x0000,
0.0054978000,419,0xAE83,
0.0054993400,419,0x9409,
0.0055008800,419,0x490E,
0.0055024000,419,0xA309,
0.0055039400,419,0x4903,
0.0055054800,419,0x9400,
0.0055070200,419,0xAE80,
0.0055094200,420,0x0000,
0.0055109600,420,0xCE03,
0.0055124800,420,0xDB89,
0.0055140200,420,0xAA0E,
0.0055155600,420,0x7888,
0.0055171000,420,0xEB03,
0.0055186400,420,0x5000,
0.0055201600,420,0x9800,
0.0055225600,421,0x0000,
0.0055241000,421,0xE904,
0.0055256400,421,0x268A,
0.0055271800,421,0x0D0E,
0.0055287200,421,0x4E88,
0.0055302400,421,0x7083,
0.0055317800,421,0x0F80,
0.0055333200,421,0x8400,
0.0055357200,422,0x0001,
0.0055372600,422,0x0704,
0.0055388000,422,0x748A,
0.0055403200,422,0x950E,
0.0055418600,422,0x2508,
0.0055434000,422,0x1802,
0.0055449400,422,0xD200,
0.0055464800,422,0x7180,
0.0055488800,423,0x0000,
0.0055504000,423,0x0600,
0.0055519400,423,0x4BE1,
0.0055534800,423,0x31A2,
0.0055550200,423,0xBF83,
0.0055565600,423,0x8941,
0.0055580800,423,0xF060,
0.0055596200,423,0xA5E0,
0.0055622200,424,0x0000,
0.0055637600,424,0x1C01,
0.0055652800,424,0x5305,
0.0055668200,424,0x1C0B,
0.0055683600,424,0x698D,
0.0055699000,424,0xD287,
0.0055714400,424,0x5182,
0.0055729800,424,0x6080,
0.0055753800,425,0x0000,
0.0055769000,425,0x2281,
0.0055784400,425,0x7905,
0.0055799800,425,0x758B,
0.0055815200,425,0xD78D,
0.0055830400,425,0x8186,
0.0055845800,425,0xE602,
0.0055861200,425,0x2C80,
0.0055885200,426,0x0000,
0.0055900600,426,0x2801,
0.0055916000,426,0xA185,
0.0055931400,426,0xD28C,
0.0055946600,426,0x488D,
0.0055962000,426,0x0A06,
0.0055977400,426,0x9801,
0.0055992800,426,0xFB80,
0.0056016800,427,0x0000,
0.0056032000,427,0x3001,
0.0056047400,427,0xCD06,
0.0056062800,427,0x330C,
0.0056078200,427,0xBB8C,
0.0056093600,427,0xBB86,
0.0056109000,427,0x3301,
0.0056124200,427,0xCD00,
0.0056148200,428,0x0000,
0.0056163600,428,0x3A01,
0.0056179000,428,0xFB86,
0.0056194400,428,0x980D,
0.0056209800,428,0x0A0C,
0.0056225000,428,0x4885,
0.0056240400,428,0xD281,
0.0056255800,428,0xA180,
0.0056279800,429,0x0000,
0.0056295200,429,0x4582,
0.0056310600,429,0x2C86,
0.0056325800,429,0xE60D,
0.0056341200,429,0x818B,
0.0056356600,429,0xD785,
0.0056372000,429,0x7581,
0.0056387400,429,0x7900,
0.0056411400,430,0x0000,
0.0056426600,430,0x5282,
0.0056442000,430,0x6087,
0.0056457400,430,0x518D,
0.0056472800,430,0xD28B,
0.0056488200,430,0x6985,
0.0056503400,430,0x1C01,
0.0056518800,430,0x5300,
0.0056542800,431,0x0000,
0.0056558200,431,0x6102,
0.0056573600,431,0x9787,
0.0056589000,431,0xC18E,
0.0056604200,431,0x250A,
0.0056619600,431,0xFE04,
0.0056635000,431,0xC681,
0.0056650400,431,0x2F80,
0.0056674400,432,0x0000,
0.0056689800,432,0x7182,
0.0056705000,432,0xD208,
0.0056720400,432,0x180E,
0.0056735800,432,0x788A,
0.0056751200,432,0x9504,
0.0056766600,432,0x7481,
0.0056781800,432,0x0F00,
0.0056805800,433,0x0000,
0.0056821200,433,0x8403,
0.0056836600,433,0x0F88,
0.0056852000,433,0x8F0E,
0.0056867400,433,0xA30A,
0.0056882600,433,0x2E84,
0.0056898000,433,0x2680,
0.0056913400,433,0xE900,
0.0056937400,434,0x0000,
0.0056952800,434,0x9803,
0.0056968200,434,0x5008,
0.0056983400,434,0xEB0E,
0.0056998800,434,0xCD89,
0.0057014200,434,0xCA83,
0.0057029600,434,0xDB80,
0.0057045000,434,0xCE00,
0.0057069000,435,0x0000,
0.0057084200,435,0xB483,
0.0057099600,435,0x9409,
0.0057115000,435,0x690E,
0.0057130400,435,0xF809,
0.0057145800,435,0x6903,
0.0057161000,435,0x9400,
0.0057176400,435,0xB480,
0.0057200400,436,0x0000,
0.0057215800,436,0xCE03,
0.0057231200,436,0xDB89,
0.0057246600,436,0xCA8E,
0.0057261800,436,0xCD88,
0.0057277200,436,0xEB03,
0.0057292600,436,0x5000,
0.0057308000,436,0x9800,
0.0057332000,437,0x0000,
0.0057347400,437,0xE904,
0.0057362600,437,0x268A,
0.0057378000,437,0x2E8E,
0.0057393400,437,0xA308,
0.0057408800,437,0x8F03,
0.0057424200,437,0x0F80,
0.0057439400,437,0x8400,
0.0057463400,438,0x0001,
0.0057478800,438,0x0F04,
0.0057494200,438,0x748A,
0.0057509600,438,0x950E,
0.0057525000,438,0x7888,
0.0057540200,438,0x1802,
0.0057555600,438,0xD200,
0.0057571000,438,0x7180,
0.0057595000,439,0x0000,
0.0057610400,439,0x0600,
0.0057625800,439,0x4BE1,
0.0057641000,439,0x36E2,
0.0057656400,439,0xC863,
0.0057671800,439,0x93A1,
0.0057687200,439,0xF060,
0.0057702600,439,0xA5E0,
0.0057728400,440,0x0000,
0.0057743800,440,0x1C01,
0.0057759200,440,0x5305,
0.0057774600,440,0x1C0B,
0.0057789800,440,0x8E0D,
0.0057805200,440,0xFB87,
0.0057820600,440,0x5182,
0.0057836000,440,0x6080,
0.0057860000,441,0x0000,
0.0057875400,441,0x2281,
0.0057890600,441,0x7905,
0.0057906000,441,0x758B,
0.0057921400,441,0xFD0D,
0.0057936800,441,0xAA07,
0.0057952200,441,0x0082,
0.0057967400,441,0x2C80,
0.0057991400,442,0x0000,
0.0058006800,442,0x2A01,
0.0058022200,442,0xA185,
0.0058037600,442,0xD28C,
0.0058053000,442,0x6E8D,
0.0058068200,442,0x3186,
0.0058083600,442,0x9801,
0.0058099000,442,0xFB80,
0.0058123000,443,0x0000,
0.0058138400,443,0x3001,
0.0058153800,443,0xCD06,
0.0058169000,443,0x330C,
0.0058184400,443,0xE28C,
0.0058199800,443,0xE286,
0.0058215200,443,0x3301,
0.0058230600,443,0xCD00,
0.0058254600,444,0x0000,
0.0058269800,444,0x3A01,
0.0058285200,444,0xFB86,
0.0058300600,444,0x980D,
0.0058316000,444,0x318C,
0.0058331400,444,0x6E85,
0.0058346600,444,0xD281,
0.0058362000,444,0xA180,
0.0058386000,445,0x0000,
0.0058401400,445,0x4582,
0.0058416800,445,0x2C87,
0.0058432200,445,0x008D,
0.0058447400,445,0xAA0B,
0.0058462800,445,0xFD05,
0.0058478200,445,0x7581,
0.0058493600,445,0x7900,
0.0058517600,446,0x0000,
0.0058533000,446,0x5282,
0.0058548400,446,0x6087,
0.0058563600,446,0x518D,
0.0058579000,446,0xFB8B,
0.0058594400,446,0x8E05,
0.0058609800,446,0x1C01,
0.0058625000,446,0x5300,
0.0058649000,447,0x0000,
0.0058664400,447,0x6102,
0.0058679800,447,0x9787,
0.0058695200,447,0xC18E,
0.0058710600,447,0x4E8B,
0.0058726000,447,0x2184,
0.0058741200,447,0xDB81,
0.0058756600,447,0x2F80,
0.0058780600,448,0x0000,
0.0058796000,448,0x7182,
0.0058811400,448,0xD208,
0.0058826800,448,0x350E,
0.0058842000,448,0xA30A,
0.0058857400,448,0xB804,
0.0058872800,448,0x8901,
0.0058888200,448,0x0F00,
0.0058912200,449,0x0000,
0.0058927600,449,0x8403,
0.0058942800,449,0x0F88,
0.0058958200,449,0x8F0E,
0.0058973600,449,0xF80A,
0.0058989000,449,0x5084,
0.0059004400,449,0x3980,
0.0059019600,449,0xF080,
0.0059043600,450,0x0000,
0.0059059000,450,0x9D83,
0.0059074400,450,0x5009,
0.0059089800,450,0x0A0F,
0.0059105000,450,0x4E89,
0.0059120400,450,0xEB83,
0.0059135800,450,0xEE00,
0.0059151200,450,0xCE00,
0.0059175200,451,0x0000,
0.0059190600,451,0xB483,
0.0059206000,451,0x9409,
0.0059221200,451,0x690F,
0.0059236600,451,0x4E89,
0.0059252000,451,0x6903,
0.0059267400,451,0x9400,
0.0059282800,451,0xB480,
0.0059306800,452,0x0000,
0.0059322000,452,0xCE03,
0.0059337400,452,0xEE09,
0.0059352800,452,0xEB8F,
0.0059368200,452,0x4E89,
0.0059383600,452,0x0A03,
0.0059398800,452,0x5000,
0.0059414200,452,0x9D80,
0.0059438200,453,0x0000,
0.0059453600,453,0xF084,
0.0059469000,453,0x398A,
0.0059484400,453,0x508E,
0.0059499600,453,0xF808,
0.0059515000,453,0x8F03,
0.0059530400,453,0x0F80,
0.0059545800,453,0x8400,
0.0059569800,454,0x0001,
0.0059585200,454,0x0F04,
0.0059600400,454,0x890A,
0.0059615800,454,0xB80E,
0.0059631200,454,0xA308,
0.0059646600,454,0x3502,
0.0059662000,454,0xD200,
0.0059677200,454,0x7180,
0.0059701200,455,0x0000,
0.0059716600,455,0x0600,
0.0059732000,455,0x4BE1,
0.0059747400,455,0x36E2,
0.0059762800,455,0xC863,
0.0059778000,455,0x9E21,
0.0059793400,455,0xF060,
0.0059808800,455,0xA5E0,
0.0059834800,456,0x0000,
0.0059850000,456,0x1C01,
0.0059865400,456,0x5305,
0.0059880800,456,0x320B,
0.0059896200,456,0xB30E,
0.0059911600,456,0x2507,
0.0059926800,456,0x6D02,
0.0059942200,456,0x6080,
0.0059966200,457,0x0000,
0.0059981600,457,0x2281,
0.0059997000,457,0x7905,
0.0060012400,457,0x8C0C,
0.0060027600,457,0x228D,
0.0060043000,457,0xAA07,
0.0060058400,457,0x0082,
0.0060073800,457,0x2C80,
0.0060097800,458,0x0000,
0.0060113200,458,0x2A01,
0.0060128400,458,0xA185,
0.0060143800,458,0xEA0C,
0.0060159200,458,0x6E8D,
0.0060174600,458,0x5986,
0.0060190000,458,0x9801,
0.0060205200,458,0xFB80,
0.0060229200,459,0x0000,
0.0060244600,459,0x3001,
0.0060260000,459,0xCD06,
0.0060275400,459,0x330C,
0.0060290800,459,0xE28C,
0.0060306000,459,0xE286,
0.0060321400,459,0x3301,
0.0060336800,459,0xCD00,
0.0060360800,460,0x0000,
0.0060376200,460,0x3A01,
0.0060391600,460,0xFB86,
0.0060406800,460,0x980D,
0.0060422200,460,0x598C,
0.0060437600,460,0x6E85,
0.0060453000,460,0xEA01,
0.0060468400,460,0xA180,
0.0060492400,461,0x0000,
0.0060507600,461,0x4582,
0.0060523000,461,0x2C87,
0.0060538400,461,0x008D,
0.0060553800,461,0xAA0C,
0.0060569200,461,0x2285,
0.0060584400,461,0x8C01,
0.0060599800,461,0x7900,
0.0060623800,462,0x0000,
0.0060639200,462,0x5282,
0.0060654600,462,0x6087,
0.0060670000,462,0x6D0E,
0.0060685200,462,0x250B,
0.0060700600,462,0xB305,
0.0060716000,462,0x3201,
0.0060731400,462,0x5300,
0.0060755400,463,0x0000,
0.0060770800,463,0x6102,
0.0060786000,463,0x9787,
0.0060801400,463,0xC18E,
0.0060816800,463,0x788B,
0.0060832200,463,0x2184,
0.0060847600,463,0xDB81,
0.0060862800,463,0x2F80,
0.0060886800,464,0x0000,
0.0060902200,464,0x7182,
0.0060917600,464,0xE108,
0.0060933000,464,0x350E,
0.0060948400,464,0xCD8A,
0.0060963600,464,0xB804,
0.0060979000,464,0x8901,
0.0060994400,464,0x0F00,
0.0061018400,465,0x0000,
0.0061033800,465,0x8403,
0.0061049200,465,0x1F88,
0.0061064600,465,0xAD0F,
0.0061079800,465,0x4E8A,
0.0061095200,465,0x5084,
0.0061110600,465,0x3980,
0.0061126000,465,0xF080,
0.0061150000,466,0x0000,
0.0061165400,466,0x9D83,
0.0061180600,466,0x6109,
0.0061196000,466,0x0A0F,
0.0061211400,466,0x7A89,
0.0061226800,466,0xEB83,
0.0061242000,466,0xEE00,
0.0061257400,466,0xCE00,
0.0061281400,467,0x0000,
0.0061296800,467,0xB483,
0.0061312200,467,0xA589,
0.0061327600,467,0x690F,
0.0061343000,467,0xA689,
0.0061358200,467,0x6903,
0.0061373600,467,0xA580,
0.0061389000,467,0xB480,
0.0061413000,468,0x0000,
0.0061428400,468,0xCE03,
0.0061443800,468,0xEE09,
0.0061459000,468,0xEB8F,
0.0061474400,468,0x7A89,
0.0061489800,468,0x0A03,
0.0061505200,468,0x6100,
0.0061520600,468,0x9D80,
0.0061544600,469,0x0000,
0.0061559800,469,0xF084,
0.0061575200,469,0x398A,
0.0061590600,469,0x508F,
0.0061606000,469,0x4E88,
0.0061621400,469,0xAD03,
0.0061636600,469,0x1F80,
0.0061652000,469,0x8400,
0.0061676000,470,0x0001,
0.0061691400,470,0x0F04,
0.0061706800,470,0x890A,
0.0061722200,470,0xB80E,
0.0061737400,470,0xCD88,
0.0061752800,470,0x3502,
0.0061768200,470,0xE100,
0.0061783600,470,0x7180,
0.0061807600,471,0x0000,
0.0061823000,471,0x0600,
0.0061838200,471,0x4BE1,
0.0061853600,471,0x36E2,
0.0061869000,471,0xD163,
0.0061884400,471,0xA8C1,
0.0061899800,471,0xF060,
0.0061915000,471,0xA980,
0.0061941000,472,0x0000,
0.0061956400,472,0x1C01,
0.0061971800,472,0x5305,
0.0061987000,472,0x320B,
0.0062002400,472,0xB30E,
0.0062017800,472,0x2507,
0.0062033200,472,0x6D02,
0.0062048600,472,0x6080,
0.0062072600,473,0x0000,
0.0062087800,473,0x2281,
0.0062103200,473,0x7905,
0.0062118600,473,0x8C0C,
0.0062134000,473,0x228D,
0.0062149400,473,0xD287,
0.0062164600,473,0x0082,
0.0062180000,473,0x2C80,
0.0062204000,474,0x0000,
0.0062219400,474,0x2A01,
0.0062234800,474,0xA185,
0.0062250200,474,0xEA0C,
0.0062265400,474,0x950D,
0.0062280800,474,0x5986,
0.0062296200,474,0x9801,
0.0062311600,474,0xFB80,
0.0062335600,475,0x0000,
0.0062351000,475,0x3001,
0.0062366200,475,0xCD06,
0.0062381600,475,0x330C,
0.0062397000,475,0xE28C,
0.0062412400,475,0xE286,
0.0062427800,475,0x3301,
0.0062443000,475,0xCD00,
0.0062467000,476,0x0000,
0.0062482400,476,0x3A01,
0.0062497800,476,0xFB86,
0.0062513200,476,0x980D,
0.0062528600,476,0x598C,
0.0062543800,476,0x9505,
0.0062559200,476,0xEA01,
0.0062574600,476,0xA180,
0.0062598600,477,0x0000,
0.0062614000,477,0x4582,
0.0062629400,477,0x2C87,
0.0062644600,477,0x008D,
0.0062660000,477,0xD28C,
0.0062675400,477,0x2285,
0.0062690800,477,0x8C01,
0.0062706200,477,0x7900,
0.0062730200,478,0x0000,
0.0062745400,478,0x5282,
0.0062760800,478,0x6087,
0.0062776200,478,0x6D0E,
0.0062791600,478,0x250B,
0.0062807000,478,0xB305,
0.0062822200,478,0x3201,
0.0062837600,478,0x5300,
0.0062861600,479,0x0000,
0.0062877000,479,0x6102,
0.0062892400,479,0xA607,
0.0062907800,479,0xC18E,
0.0062923000,479,0xA30B,
0.0062938400,479,0x4584,
0.0062953800,479,0xDB81,
0.0062969200,479,0x2F80,
0.0062993200,480,0x0000,
0.0063008600,480,0x7182,
0.0063023800,480,0xE108,
0.0063039200,480,0x350E,
0.0063054600,480,0xF80A,
0.0063070000,480,0xB804,
0.0063085400,480,0x8901,
0.0063100600,480,0x0F00,
0.0063124600,481,0x0000,
0.0063140000,481,0x8403,
0.0063155400,481,0x1F88,
0.0063170800,481,0xAD0F,
0.0063186200,481,0x4E8A,
0.0063201400,481,0x5084,
0.0063216800,481,0x3980,
0.0063232200,481,0xF080,
0.0063256200,482,0x0000,
0.0063271600,482,0x9D83,
0.0063287000,482,0x6109,
0.0063302200,482,0x0A0F,
0.0063317600,482,0xA689,
0.0063333000,482,0xEB83,
0.0063348400,482,0xEE00,
0.0063363800,482,0xCE00,
0.0063387800,483,0x0000,
0.0063403000,483,0xB483,
0.0063418400,483,0xA589,
0.0063433800,483,0x898F,
0.0063449200,483,0xFF89,
0.0063464600,483,0x8983,
0.0063479800,483,0xA580,
0.0063495200,483,0xB480,
0.0063519200,484,0x0000,
0.0063534600,484,0xCE03,
0.0063550000,484,0xEE09,
0.0063565400,484,0xEB8F,
0.0063580600,484,0xA689,
0.0063596000,484,0x0A03,
0.0063611400,484,0x6100,
0.0063626800,484,0x9D80,
0.0063650800,485,0x0000,
0.0063666200,485,0xF084,
0.0063681400,485,0x398A,
0.0063696800,485,0x508F,
0.0063712200,485,0x4E88,
0.0063727600,485,0xAD03,
0.0063743000,485,0x1F80,
0.0063758400,485,0x8400,
0.0063782400,486,0x0001,
0.0063797600,486,0x0F04,
0.0063813000,486,0x890A,
0.0063828400,486,0xB80E,
0.0063843800,486,0xF808,
0.0063859000,486,0x3502,
0.0063874400,486,0xE100,
0.0063889800,486,0x7180,
0.0063913800,487,0x0000,
0.0063929200,487,0x0600,
0.0063944600,487,0x4BE1,
0.0063959800,487,0x36E2,
0.0063975200,487,0xC863,
0.0063990600,487,0x9E21,
0.0064006000,487,0xF060,
0.0064021400,487,0xA5E0,
0.0064047200,488,0x0000,
0.0064062600,488,0x1C01,
0.0064078000,488,0x5305,
0.0064093400,488,0x320B,
0.0064108800,488,0xB30E,
0.0064124000,488,0x2507,
0.0064139400,488,0x6D02,
0.0064154800,488,0x6080,
0.0064178800,489,0x0000,
0.0064194200,489,0x2281,
0.0064209600,489,0x7905,
0.0064224800,489,0x8C0C,
0.0064240200,489,0x228D,
0.0064255600,489,0xAA07,
0.0064271000,489,0x0082,
0.0064286400,489,0x2C80,
0.0064310400,490,0x0000,
0.0064325600,490,0x2A01,
0.0064341000,490,0xA185,
0.0064356400,490,0xEA0C,
0.0064371800,490,0x6E8D,
0.0064387000,490,0x5986,
0.0064402400,490,0x9801,
0.0064417800,490,0xFB80,
0.0064441800,491,0x0000,
0.0064457200,491,0x3001,
0.0064472600,491,0xCD06,
0.0064488000,491,0x330C,
0.0064503200,491,0xE28C,
0.0064518600,491,0xE286,
0.0064534000,491,0x3301,
0.0064549400,491,0xCD00,
0.0064573400,492,0x0000,
0.0064588800,492,0x3A01,
0.0064604000,492,0xFB86,
0.0064619400,492,0x980D,
0.0064634800,492,0x598C,
0.0064650200,492,0x6E85,
0.0064665600,492,0xEA01,
0.0064680800,492,0xA180,
0.0064704800,493,0x0000,
0.0064720200,493,0x4582,
0.0064735600,493,0x2C87,
0.0064751000,493,0x008D,
0.0064766400,493,0xAA0C,
0.0064781600,493,0x2285,
0.0064797000,493,0x8C01,
0.0064812400,493,0x7900,
0.0064836400,494,0x0000,
0.0064851800,494,0x5282,
0.0064867200,494,0x6087,
0.0064882400,494,0x6D0E,
0.0064897800,494,0x250B,
0.0064913200,494,0xB305,
0.0064928600,494,0x3201,
0.0064944000,494,0x5300,
0.0064968000,495,0x0000,
0.0064983200,495,0x6102,
0.0064998600,495,0x9787,
0.0065014000,495,0xC18E,
0.0065029400,495,0x788B,
0.0065044800,495,0x2184,
0.0065060000,495,0xDB81,
0.0065075400,495,0x2F80,
0.0065099400,496,0x0000,
0.0065114800,496,0x7182,
0.0065130200,496,0xE108,
0.0065145600,496,0x350E,
0.0065160800,496,0xCD8A,
0.0065176200,496,0xB804,
0.0065191600,496,0x8901,
0.0065207000,496,0x0F00,
0.0065231000,497,0x0000,
0.0065246400,497,0x8403,
0.0065261600,497,0x1F88,
0.0065277000,497,0xAD0F,
0.0065292400,497,0x4E8A,
0.0065307800,497,0x5084,
0.0065323200,497,0x3980,
0.0065338400,497,0xF080,
0.0065362400,498,0x0000,
0.0065377800,498,0x9D83,
0.0065393200,498,0x6109,
0.0065408600,498,0x0A0F,
0.0065424000,498,0x7A89,
0.0065439200,498,0xEB83,
0.0065454600,498,0xEE00,
0.0065470000,498,0xCE00,
0.0065494000,499,0x0000,
0.0065509400,499,0xB483,
0.0065524800,499,0xA589,
0.0065540000,499,0x690F,
0.0065555400,499,0xA689,
0.0065570800,499,0x6903,
0.0065586200,499,0xA580,
0.0065601600,499,0xB480,
0.0065625600,500,0x0000,
0.0065640800,500,0xCE03,
0.0065656200,500,0xEE09,
0.0065671600,500,0xEB8F,
0.0065687000,500,0x7A89,
0.0065702400,500,0x0A03,
0.0065717600,500,0x6100,
0.0065733000,500,0x9D80,
0.0065757000,501,0x0000,
0.0065772400,501,0xF084,
0.0065787800,501,0x398A,
0.0065803200,501,0x508F,
0.0065818400,501,0x4E88,
0.0065833800,501,0xAD03,
0.0065849200,501,0x1F80,
0.0065864600,501,0x8400,
0.0065888600,502,0x0001,
0.0065904000,502,0x0F04,
0.0065919200,502,0x890A,
0.0065934600,502,0xB80E,
0.0065950000,502,0xCD88,
0.0065965400,502,0x3502,
0.0065980800,502,0xE100,
0.0065996000,502,0x7180,
0.0066020000,503,0x0000,
0.0066035400,503,0x0600,
0.0066050800,503,0x4BE1,
0.0066066200,503,0x36E2,
0.0066081600,503,0xC863,
0.0066096800,503,0x93A1,
0.0066112200,503,0xF060,
0.0066127600,503,0xA5E0,
0.0066153600,504,0x0000,
0.0066168800,504,0x1C01,
0.0066184200,504,0x5305,
0.0066199600,504,0x1C0B,
0.0066215000,504,0x8E0D,
0.0066230400,504,0xFB87,
0.0066245600,504,0x5182,
0.0066261000,504,0x6080,
0.0066285000,505,0x0000,
0.0066300400,505,0x2281,
0.0066315800,505,0x7905,
0.0066331200,505,0x758B,
0.0066346600,505,0xFD0D,
