Time [s],Packet ID,MOSI,MISO
0.0000000000,0,The initial (idle) state of the CLK line does not match the settings,
0.0000467200,2,0x1000,
0.0000482600,2,0x2A80,
0.0000497800,2,0x2A80,
0.0000513200,2,0x2A80,
0.0000528600,2,0x2A80,
0.0000544000,2,0x2A80,
0.0000559400,2,0x2A80,
0.0000574600,2,0x2A80,
0.0000599600,3,0x0000,
0.0000615000,3,0xD500,
0.0000630400,3,0xD500,
0.0000645800,3,0xD500,
0.0000661000,3,0xD500,
0.0000676400,3,0xD500,
0.0000691800,3,0xD500,
0.0000707200,3,0xD500,
0.0000731200,4,0x0009,
0.0000746600,4,0x8009,
0.0000762000,4,0x8009,
0.0000777200,4,0x8009,
0.0000792600,4,0x8009,
0.0000808000,4,0x8009,
0.0000823400,4,0x8009,
0.0000838600,4,0x8009,
0.0000862800,5,0x0000,
0.0000878000,5,0x2A80,
0.0000893400,5,0x2A80,
0.0000908800,5,0x2A80,
0.0000924200,5,0x2A80,
0.0000939600,5,0x2A80,
0.0000954800,5,0x2A80,
0.0000970200,5,0x2A80,
0.0000994200,6,0x0000,
0.0001009600,6,0xAA80,
0.0001025000,6,0xAA80,
0.0001040200,6,0xAA80,
0.0001055600,6,0xAA80,
0.0001071000,6,0xAA80,
0.0001086400,6,0xAA80,
0.0001101800,6,0xAA80,
0.0001125800,7,0x0000,
0.0001141200,7,0x0C80,
0.0001156400,7,0x0C80,
0.0001171800,7,0x0C80,
0.0001187200,7,0x0C80,
0.0001202600,7,0x0C80,
0.0001218000,7,0x0C80,
0.0001233200,7,0x0C80,
0.0001257200,8,0x0000,
0.0001272600,8,0x0C80,
0.0001288000,8,0x0C80,
0.0001303400,8,0x0C80,
0.0001318800,8,0x0C80,
0.0001334000,8,0x0C80,
0.0001349400,8,0x0C80,
0.0001364800,8,0x0C80,
0.0001388800,9,0x0000,
0.0001404200,9,0x0C80,
0.0001419600,9,0x0C80,
0.0001434800,9,0x0C80,
0.0001450200,9,0x0C80,
0.0001465600,9,0x0C80,
0.0001481000,9,0x0C80,
0.0001496200,9,0x0C80,
0.0001520400,10,0x0000,
0.0001535600,10,0x0C80,
0.0001551000,10,0x0C80,
0.0001566400,10,0x0C80,
0.0001581800,10,0x0C80,
0.0001597200,10,0x0C80,
0.0001612400,10,0x0C80,
0.0001627800,10,0x0C80,
0.0001651800,11,0x0000,
0.0001667200,11,0x0C80,
0.0001682600,11,0x0C80,
0.0001698000,11,0x0C80,
0.0001713200,11,0x0C80,
0.0001728600,11,0x0C80,
0.0001744000,11,0x0C80,
0.0001759400,11,0x0C80,
0.0001783400,12,0x0000,
0.0001798800,12,0x0C80,
0.0001814000,12,0x0C80,
0.0001829400,12,0x0C80,
0.0001844800,12,0x0C80,
0.0001860200,12,0x0C80,
0.0001875600,12,0x0C80,
0.0001890800,12,0x0C80,
0.0001914800,13,0x0000,
0.0001930200,13,0x0C80,
0.0001945600,13,0x0C80,
0.0001961000,13,0x0C80,
0.0001976400,13,0x0C80,
0.0001991600,13,0x0C80,
0.0002007000,13,0x0C80,
0.0002022400,13,0x0C80,
0.0002046400,14,0x0000,
0.0002061800,14,0x0C80,
0.0002077200,14,0x0C80,
0.0002092400,14,0x0C80,
0.0002107800,14,0x0C80,
0.0002123200,14,0x0C80,
0.0002138600,14,0x0C80,
0.0002154000,14,0x0C80,
0.0002178000,15,0x0000,
0.0002193200,15,0x0C80,
0.0002208600,15,0x0C80,
0.0002224000,15,0x0C80,
0.0002239400,15,0x0C80,
0.0002254800,15,0x0C80,
0.0002270000,15,0x0C80,
0.0002285400,15,0x0C80,
0.0002309400,16,0x0000,
0.0002324800,16,0x0C80,
0.0002340200,16,0x0C80,
0.0002355600,16,0x0C80,
0.0002370800,16,0x0C80,
0.0002386200,16,0x0C80,
0.0002401600,16,0x0C80,
0.0002417000,16,0x0C80,
0.0002441000,17,0x0000,
0.0002456400,17,0x0C80,
0.0002471600,17,0x0C80,
0.0002487000,17,0x0C80,
0.0002502400,17,0x0C80,
0.0002517800,17,0x0C80,
0.0002533200,17,0x0C80,
0.0002548400,17,0x0C80,
0.0002572400,18,0x0000,
0.0002587800,18,0x0C80,
0.0002603200,18,0x0C80,
0.0002618600,18,0x0C80,
0.0002634000,18,0x0C80,
0.0002649200,18,0x0C80,
0.0002664600,18,0x0C80,
0.0002680000,18,0x0C80,
0.0002704000,19,0x0000,
0.0002719400,19,0x0C80,
0.0002734800,19,0x0C80,
0.0002750000,19,0x0C80,
0.0002765400,19,0x0C80,
0.0002780800,19,0x0C80,
0.0002796200,19,0x0C80,
0.0002811600,19,0x0C80,
0.0002835600,20,0x0000,
0.0002850800,20,0x0C80,
0.0002866200,20,0x0C80,
0.0002881600,20,0x0C80,
0.0002897000,20,0x0C80,
0.0002912400,20,0x0C80,
0.0002927600,20,0x0C80,
0.0002943000,20,0x0C80,
0.0002967000,21,0x0000,
0.0002982400,21,0x0C80,
0.0002997800,21,0x0C80,
0.0003013200,21,0x0C80,
0.0003028400,21,0x0C80,
0.0003043800,21,0x0C80,
0.0003059200,21,0x0C80,
0.0003074600,21,0x0C80,
0.0003098600,22,0x0000,
0.0003114000,22,0x0C80,
0.0003129200,22,0x0C80,
0.0003144600,22,0x0C80,
0.0003160000,22,0x0C80,
0.0003175400,22,0x0C80,
0.0003190800,22,0x0C80,
0.0003206000,22,0x0C80,
0.0003230000,23,0x0000,
0.0003245400,23,0x0380,
0.0003260800,23,0x0380,
0.0003276200,23,0x0380,
0.0003291600,23,0x0380,
0.0003306800,23,0x0380,
0.0003322200,23,0x0380,
0.0003337600,23,0x0380,
0.0003363600,24,0x0000,
0.0003378800,24,0x0E00,
0.0003394200,24,0x0E00,
0.0003409600,24,0x0E00,
0.0003425000,24,0x0E00,
0.0003440400,24,0x0E00,
0.0003455600,24,0x0E00,
0.0003471000,24,0x0E00,
0.0003495000,25,0x0000,
0.0003510400,25,0x0E00,
0.0003525800,25,0x0E00,
0.0003541200,25,0x0E00,
0.0003556600,25,0x0E00,
0.0003571800,25,0x0E00,
0.0003587200,25,0x0E00,
0.0003602600,25,0x0E00,
0.0003626600,26,0x0000,
0.0003642000,26,0x0E00,
0.0003657200,26,0x0E00,
0.0003672600,26,0x0E00,
0.0003688000,26,0x0E00,
0.0003703400,26,0x0E00,
0.0003718800,26,0x0E00,
0.0003734000,26,0x0E00,
0.0003758200,27,0x0000,
0.0003773400,27,0x0E00,
0.0003788800,27,0x0E00,
0.0003804200,27,0x0E00,
0.0003819600,27,0x0E00,
0.0003835000,27,0x0E00,
0.0003850200,27,0x0E00,
0.0003865600,27,0x0E00,
0.0003889600,28,0x0000,
0.0003905000,28,0x0E00,
0.0003920400,28,0x0E00,
0.0003935800,28,0x0E00,
0.0003951000,28,0x0E00,
0.0003966400,28,0x0E00,
0.0003981800,28,0x0E00,
0.0003997200,28,0x0E00,
0.0004021200,29,0x0000,
0.0004036600,29,0x0E00,
0.0004051800,29,0x0E00,
0.0004067200,29,0x0E00,
0.0004082600,29,0x0E00,
0.0004098000,29,0x0E00,
0.0004113400,29,0x0E00,
0.0004128600,29,0x0E00,
0.0004152600,30,0x0000,
0.0004168000,30,0x0E00,
0.0004183400,30,0x0E00,
0.0004198800,30,0x0E00,
0.0004214200,30,0x0E00,
0.0004229400,30,0x0E00,
0.0004244800,30,0x0E00,
0.0004260200,30,0x0E00,
0.0004284200,31,0x0000,
0.0004299600,31,0x0E00,
0.0004315000,31,0x0E00,
0.0004330200,31,0x0E00,
0.0004345600,31,0x0E00,
0.0004361000,31,0x0E00,
0.0004376400,31,0x0E00,
0.0004391800,31,0x0E00,
0.0004415800,32,0x0000,
0.0004431000,32,0x0E00,
0.0004446400,32,0x0E00,
0.0004461800,32,0x0E00,
0.0004477200,32,0x0E00,
0.0004492600,32,0x0E00,
0.0004507800,32,0x0E00,
0.0004523200,32,0x0E00,
0.0004547200,33,0x0000,
0.0004562600,33,0x0E00,
0.0004578000,33,0x0E00,
0.0004593400,33,0x0E00,
0.0004608600,33,0x0E00,
0.0004624000,33,0x0E00,
0.0004639400,33,0x0E00,
0.0004654800,33,0x0E00,
0.0004678800,34,0x0000,
0.0004694200,34,0x0E00,
0.0004709400,34,0x0E00,
0.0004724800,34,0x0E00,
0.0004740200,34,0x0E00,
0.0004755600,34,0x0E00,
0.0004771000,34,0x0E00,
0.0004786200,34,0x0E00,
0.0004810200,35,0x0000,
0.0004825600,35,0x0E00,
0.0004841000,35,0x0E00,
0.0004856400,35,0x0E00,
0.0004871800,35,0x0E00,
0.0004887000,35,0x0E00,
0.0004902400,35,0x0E00,
0.0004917800,35,0x0E00,
0.0004941800,36,0x0000,
0.0004957200,36,0x0E00,
0.0004972600,36,0x0E00,
0.0004987800,36,0x0E00,
0.0005003200,36,0x0E00,
0.0005018600,36,0x0E00,
0.0005034000,36,0x0E00,
0.0005049400,36,0x0E00,
0.0005073400,37,0x0000,
0.0005088600,37,0x0E00,
0.0005104000,37,0x0E00,
0.0005119400,37,0x0E00,
0.0005134800,37,0x0E00,
0.0005150200,37,0x0E00,
0.0005165400,37,0x0E00,
0.0005180800,37,0x0E00,
0.0005204800,38,0x0000,
0.0005220200,38,0x0E00,
0.0005235600,38,0x0E00,
0.0005251000,38,0x0E00,
0.0005266200,38,0x0E00,
0.0005281600,38,0x0E00,
0.0005297000,38,0x0E00,
0.0005312400,38,0x0E00,
0.0005336400,39,0x0000,
0.0005351800,39,0x03E0,
0.0005367000,39,0x03E0,
0.0005382400,39,0x03E0,
0.0005397800,39,0x03E0,
0.0005413200,39,0x03E0,
0.0005428600,39,0x03E0,
0.0005443800,39,0x03E0,
0.0005469800,40,0x0000,
0.0005485200,40,0x0F80,
0.0005500600,40,0x0F80,
0.0005515800,40,0x0F80,
0.0005531200,40,0x0F80,
0.0005546600,40,0x0F80,
0.0005562000,40,0x0F80,
0.0005577400,40,0x0F80,
0.0005601400,41,0x0000,
0.0005616600,41,0x0F80,
0.0005632000,41,0x0F80,
0.0005647400,41,0x0F80,
0.0005662800,41,0x0F80,
0.0005678200,41,0x0F80,
0.0005693400,41,0x0F80,
0.0005708800,41,0x0F80,
0.0005732800,42,0x0000,
0.0005748200,42,0x0F80,
0.0005763600,42,0x0F80,
0.0005779000,42,0x0F80,
0.0005794200,42,0x0F80,
0.0005809600,42,0x0F80,
0.0005825000,42,0x0F80,
0.0005840400,42,0x0F80,
0.0005864400,43,0x0000,
0.0005879800,43,0x0F80,
0.0005895000,43,0x0F80,
0.0005910400,43,0x0F80,
0.0005925800,43,0x0F80,
0.0005941200,43,0x0F80,
0.0005956600,43,0x0F80,
0.0005971800,43,0x0F80,
0.0005995800,44,0x0000,
0.0006011200,44,0x0F80,
0.0006026600,44,0x0F80,
0.0006042000,44,0x0F80,
0.0006057400,44,0x0F80,
0.0006072600,44,0x0F80,
0.0006088000,44,0x0F80,
0.0006103400,44,0x0F80,
0.0006127400,45,0x0000,
0.0006142800,45,0x0F80,
0.0006158200,45,0x0F80,
0.0006173600,45,0x0F80,
0.0006188800,45,0x0F80,
0.0006204200,45,0x0F80,
0.0006219600,45,0x0F80,
0.0006235000,45,0x0F80,
0.0006259000,46,0x0000,
0.0006274200,46,0x0F80,
0.0006289600,46,0x0F80,
0.0006305000,46,0x0F80,
0.0006320400,46,0x0F80,
0.0006335800,46,0x0F80,
0.0006351200,46,0x0F80,
0.0006366400,46,0x0F80,
0.0006390400,47,0x0000,
0.0006405800,47,0x0F80,
0.0006421200,47,0x0F80,
0.0006436600,47,0x0F80,
0.0006452000,47,0x0F80,
0.0006467200,47,0x0F80,
0.0006482600,47,0x0F80,
0.0006498000,47,0x0F80,
0.0006522000,48,0x0000,
0.0006537400,48,0x0F80,
0.0006552800,48,0x0F80,
0.0006568000,48,0x0F80,
0.0006583400,48,0x0F80,
0.0006598800,48,0x0F80,
0.0006614200,48,0x0F80,
0.0006629600,48,0x0F80,
0.0006653600,49,0x0000,
0.0006668800,49,0x0F80,
0.0006684200,49,0x0F80,
0.0006699600,49,0x0F80,
0.0006715000,49,0x0F80,
0.0006730400,49,0x0F80,
0.0006745600,49,0x0F80,
0.0006761000,49,0x0F80,
0.0006785000,50,0x0000,
0.0006800400,50,0x0F80,
0.0006815800,50,0x0F80,
0.0006831200,50,0x0F80,
0.0006846400,50,0x0F80,
0.0006861800,50,0x0F80,
0.0006877200,50,0x0F80,
0.0006892600,50,0x0F80,
0.0006916600,51,0x0000,
0.0006932000,51,0x0F80,
0.0006947200,51,0x0F80,
0.0006962600,51,0x0F80,
0.0006978000,51,0x0F80,
0.0006993400,51,0x0F80,
0.0007008800,51,0x0F80,
0.0007024000,51,0x0F80,
0.0007048000,52,0x0000,
0.0007063400,52,0x0F80,
0.0007078800,52,0x0F80,
0.0007094200,52,0x0F80,
0.0007109600,52,0x0F80,
0.0007124800,52,0x0F80,
0.0007140200,52,0x0F80,
0.0007155600,52,0x0F80,
0.0007179600,53,0x0000,
0.0007195000,53,0x0F80,
0.0007210400,53,0x0F80,
0.0007225600,53,0x0F80,
0.0007241000,53,0x0F80,
0.0007256400,53,0x0F80,
0.0007271800,53,0x0F80,
0.0007287200,53,0x0F80,
0.0007311200,54,0x0000,
0.0007326400,54,0x0F80,
0.0007341800,54,0x0F80,
0.0007357200,54,0x0F80,
0.0007372600,54,0x0F80,
0.0007388000,54,0x0F80,
0.0007403200,54,0x0F80,
0.0007418600,54,0x0F80,
0.0007442600,55,0x0000,
0.0007458000,55,0x0440,
0.0007473400,55,0x0440,
0.0007488800,55,0x0440,
0.0007504000,55,0x0440,
0.0007519400,55,0x0440,
0.0007534800,55,0x0440,
0.0007550200,55,0x0440,
0.0007576000,56,0x0000,
0.0007591400,56,0x1100,
0.0007606800,56,0x1100,
0.0007622200,56,0x1100,
0.0007637600,56,0x1100,
0.0007652800,56,0x1100,
0.0007668200,56,0x1100,
0.0007683600,56,0x1100,
0.0007707600,57,0x0000,
0.0007723000,57,0x1100,
0.0007738400,57,0x1100,
0.0007753600,57,0x1100,
0.0007769000,57,0x1100,
0.0007784400,57,0x1100,
0.0007799800,57,0x1100,
0.0007815200,57,0x1100,
0.0007839200,58,0x0000,
0.0007854400,58,0x1100,
0.0007869800,58,0x1100,
0.0007885200,58,0x1100,
0.0007900600,58,0x1100,
0.0007916000,58,0x1100,
0.0007931200,58,0x1100,
0.0007946600,58,0x1100,
0.0007970600,59,0x0000,
0.0007986000,59,0x1100,
0.0008001400,59,0x1100,
0.0008016800,59,0x1100,
0.0008032000,59,0x1100,
0.0008047400,59,0x1100,
0.0008062800,59,0x1100,
0.0008078200,59,0x1100,
0.0008102200,60,0x0000,
0.0008117600,60,0x1100,
0.0008132800,60,0x1100,
0.0008148200,60,0x1100,
0.0008163600,60,0x1100,
0.0008179000,60,0x1100,
0.0008194400,60,0x1100,
0.0008209600,60,0x1100,
0.0008233600,61,0x0000,
0.0008249000,61,0x1100,
0.0008264400,61,0x1100,
0.0008279800,61,0x1100,
0.0008295200,61,0x1100,
0.0008310400,61,0x1100,
0.0008325800,61,0x1100,
0.0008341200,61,0x1100,
0.0008365200,62,0x0000,
0.0008380600,62,0x1100,
0.0008396000,62,0x1100,
0.0008411200,62,0x1100,
0.0008426600,62,0x1100,
0.0008442000,62,0x1100,
0.0008457400,62,0x1100,
0.0008472800,62,0x1100,
0.0008496800,63,0x0000,
0.0008512000,63,0x1100,
0.0008527400,63,0x1100,
0.0008542800,63,0x1100,
0.0008558200,63,0x1100,
0.0008573600,63,0x1100,
0.0008588800,63,0x1100,
0.0008604200,63,0x1100,
0.0008628200,64,0x0000,
0.0008643600,64,0x1100,
0.0008659000,64,0x1100,
0.0008674400,64,0x1100,
0.0008689600,64,0x1100,
0.0008705000,64,0x1100,
0.0008720400,64,0x1100,
0.0008735800,64,0x1100,
0.0008759800,65,0x0000,
0.0008775200,65,0x1100,
0.0008790600,65,0x1100,
0.0008805800,65,0x1100,
0.0008821200,65,0x1100,
0.0008836600,65,0x1100,
0.0008852000,65,0x1100,
0.0008867200,65,0x1100,
0.0008891200,66,0x0000,
0.0008906600,66,0x1100,
0.0008922000,66,0x1100,
0.0008937400,66,0x1100,
0.0008952800,66,0x1100,
0.0008968200,66,0x1100,
0.0008983400,66,0x1100,
0.0008998800,66,0x1100,
0.0009022800,67,0x0000,
0.0009038200,67,0x1100,
0.0009053600,67,0x1100,
0.0009069000,67,0x1100,
0.0009084200,67,0x1100,
0.0009099600,67,0x1100,
0.0009115000,67,0x1100,
0.0009130400,67,0x1100,
0.0009154400,68,0x0000,
0.0009169800,68,0x1100,
0.0009185000,68,0x1100,
0.0009200400,68,0x1100,
0.0009215800,68,0x1100,
0.0009231200,68,0x1100,
0.0009246600,68,0x1100,
0.0009261800,68,0x1100,
0.0009285800,69,0x0000,
0.0009301200,69,0x1100,
0.0009316600,69,0x1100,
0.0009332000,69,0x1100,
0.0009347400,69,0x1100,
0.0009362600,69,0x1100,
0.0009378000,69,0x1100,
0.0009393400,69,0x1100,
0.0009417400,70,0x0000,
0.0009432800,70,0x1100,
0.0009448200,70,0x1100,
0.0009463400,70,0x1100,
0.0009478800,70,0x1100,
0.0009494200,70,0x1100,
0.0009509600,70,0x1100,
0.0009525000,70,0x1100,
0.0009549000,71,0x0000,
0.0009564200,71,0x04C0,
0.0009579600,71,0x04C0,
0.0009595000,71,0x04C0,
0.0009610400,71,0x04C0,
0.0009625800,71,0x04C0,
0.0009641000,71,0x04C0,
0.0009656400,71,0x04C0,
0.0009682400,72,0x0000,
0.0009697800,72,0x1300,
0.0009713000,72,0x1300,
0.0009728400,72,0x1300,
0.0009743800,72,0x1300,
0.0009759200,72,0x1300,
0.0009774600,72,0x1300,
0.0009789800,72,0x1300,
0.0009813800,73,0x0000,
0.0009829200,73,0x1300,
0.0009844600,73,0x1300,
0.0009860000,73,0x1300,
0.0009875400,73,0x1300,
0.0009890600,73,0x1300,
0.0009906000,73,0x1300,
0.0009921400,73,0x1300,
0.0009945400,74,0x0000,
0.0009960800,74,0x1300,
0.0009976200,74,0x1300,
0.0009991400,74,0x1300,
0.0010006800,74,0x1300,
0.0010022200,74,0x1300,
0.0010037600,74,0x1300,
0.0010053000,74,0x1300,
0.0010077000,75,0x0000,
0.0010092200,75,0x1300,
0.0010107600,75,0x1300,
0.0010123000,75,0x1300,
0.0010138400,75,0x1300,
0.0010153800,75,0x1300,
0.0010169000,75,0x1300,
0.0010184400,75,0x1300,
0.0010208400,76,0x0000,
0.0010223800,76,0x1300,
0.0010239200,76,0x1300,
0.0010254600,76,0x1300,
0.0010269800,76,0x1300,
0.0010285200,76,0x1300,
0.0010300600,76,0x1300,
0.0010316000,76,0x1300,
0.0010340000,77,0x0000,
0.0010355400,77,0x1300,
0.0010370600,77,0x1300,
0.0010386000,77,0x1300,
0.0010401400,77,0x1300,
0.0010416800,77,0x1300,
0.0010432200,77,0x1300,
0.0010447400,77,0x1300,
0.0010471400,78,0x0000,
0.0010486800,78,0x1300,
0.0010502200,78,0x1300,
0.0010517600,78,0x1300,
0.0010533000,78,0x1300,
0.0010548200,78,0x1300,
0.0010563600,78,0x1300,
0.0010579000,78,0x1300,
0.0010603000,79,0x0000,
0.0010618400,79,0x1300,
0.0010633800,79,0x1300,
0.0010649000,79,0x1300,
0.0010664400,79,0x1300,
0.0010679800,79,0x1300,
0.0010695200,79,0x1300,
0.0010710600,79,0x1300,
0.0010734600,80,0x0000,
0.0010749800,80,0x1300,
0.0010765200,80,0x1300,
0.0010780600,80,0x1300,
0.0010796000,80,0x1300,
0.0010811400,80,0x1300,
0.0010826600,80,0x1300,
0.0010842000,80,0x1300,
0.0010866000,81,0x0000,
0.0010881400,81,0x1300,
0.0010896800,81,0x1300,
0.0010912200,81,0x1300,
0.0010927400,81,0x1300,
0.0010942800,81,0x1300,
0.0010958200,81,0x1300,
0.0010973600,81,0x1300,
0.0010997600,82,0x0000,
0.0011013000,82,0x1300,
0.0011028200,82,0x1300,
0.0011043600,82,0x1300,
0.0011059000,82,0x1300,
0.0011074400,82,0x1300,
0.0011089800,82,0x1300,
0.0011105000,82,0x1300,
0.0011129000,83,0x0000,
0.0011144400,83,0x1300,
0.0011159800,83,0x1300,
0.0011175200,83,0x1300,
0.0011190600,83,0x1300,
0.0011205800,83,0x1300,
0.0011221200,83,0x1300,
0.0011236600,83,0x1300,
0.0011260600,84,0x0000,
0.0011276000,84,0x1300,
0.0011291400,84,0x1300,
0.0011306600,84,0x1300,
0.0011322000,84,0x1300,
0.0011337400,84,0x1300,
0.0011352800,84,0x1300,
0.0011368200,84,0x1300,
0.0011392200,85,0x0000,
0.0011407600,85,0x1300,
0.0011422800,85,0x1300,
0.0011438200,85,0x1300,
0.0011453600,85,0x1300,
0.0011469000,85,0x1300,
0.0011484200,85,0x1300,
0.0011499600,85,0x1300,
0.0011523600,86,0x0000,
0.0011539000,86,0x1300,
0.0011554400,86,0x1300,
0.0011569800,86,0x1300,
0.0011585000,86,0x1300,
0.0011600400,86,0x1300,
0.0011615800,86,0x1300,
0.0011631200,86,0x1300,
0.0011655200,87,0x0000,
0.0011670600,87,0x0540,
0.0011686000,87,0x0540,
0.0011701200,87,0x0540,
0.0011716600,87,0x0540,
0.0011732000,87,0x0540,
0.0011747400,87,0x0540,
0.0011762800,87,0x0540,
0.0011788600,88,0x0000,
0.0011804000,88,0x1500,
0.0011819400,88,0x1500,
0.0011834800,88,0x1500,
0.0011850000,88,0x1500,
0.0011865400,88,0x1500,
0.0011880800,88,0x1500,
0.0011896200,88,0x1500,
0.0011920200,89,0x0000,
0.0011935600,89,0x1500,
0.0011950800,89,0x1500,
0.0011966200,89,0x1500,
0.0011981600,89,0x1500,
0.0011997000,89,0x1500,
0.0012012400,89,0x1500,
0.0012027600,89,0x1500,
0.0012051600,90,0x0000,
0.0012067000,90,0x1500,
0.0012082400,90,0x1500,
0.0012097800,90,0x1500,
0.0012113200,90,0x1500,
0.0012128400,90,0x1500,
0.0012143800,90,0x1500,
0.0012159200,90,0x1500,
0.0012183200,91,0x0000,
0.0012198600,91,0x1500,
0.0012214000,91,0x1500,
0.0012229200,91,0x1500,
0.0012244600,91,0x1500,
0.0012260000,91,0x1500,
0.0012275400,91,0x1500,
0.0012290800,91,0x1500,
0.0012314800,92,0x0000,
0.0012330000,92,0x1500,
0.0012345400,92,0x1500,
0.0012360800,92,0x1500,
0.0012376200,92,0x1500,
0.0012391600,92,0x1500,
0.0012406800,92,0x1500,
0.0012422200,92,0x1500,
0.0012446200,93,0x0000,
0.0012461600,93,0x1500,
0.0012477000,93,0x1500,
0.0012492400,93,0x1500,
0.0012507600,93,0x1500,
0.0012523000,93,0x1500,
0.0012538400,93,0x1500,
0.0012553800,93,0x1500,
0.0012577800,94,0x0000,
0.0012593200,94,0x1500,
0.0012608400,94,0x1500,
0.0012623800,94,0x1500,
0.0012639200,94,0x1500,
0.0012654600,94,0x1500,
0.0012670000,94,0x1500,
0.0012685200,94,0x1500,
0.0012709200,95,0x0000,
0.0012724600,95,0x1500,
0.0012740000,95,0x1500,
0.0012755400,95,0x1500,
0.0012770800,95,0x1500,
0.0012786000,95,0x1500,
0.0012801400,95,0x1500,
0.0012816800,95,0x1500,
0.0012840800,96,0x0000,
0.0012856200,96,0x1500,
0.0012871600,96,0x1500,
0.0012886800,96,0x1500,
0.0012902200,96,0x1500,
0.0012917600,96,0x1500,
0.0012933000,96,0x1500,
0.0012948400,96,0x1500,
0.0012972400,97,0x0000,
0.0012987600,97,0x1500,
0.0013003000,97,0x1500,
0.0013018400,97,0x1500,
0.0013033800,97,0x1500,
0.0013049200,97,0x1500,
0.0013064400,97,0x1500,
0.0013079800,97,0x1500,
0.0013103800,98,0x0000,
0.0013119200,98,0x1500,
0.0013134600,98,0x1500,
0.0013150000,98,0x1500,
0.0013165200,98,0x1500,
0.0013180600,98,0x1500,
0.0013196000,98,0x1500,
0.0013211400,98,0x1500,
0.0013235400,99,0x0000,
0.0013250800,99,0x1500,
0.0013266000,99,0x1500,
0.0013281400,99,0x1500,
0.0013296800,99,0x1500,
0.0013312200,99,0x1500,
0.0013327600,99,0x1500,
0.0013342800,99,0x1500,
0.0013366800,100,0x0000,
0.0013382200,100,0x1500,
0.0013397600,100,0x1500,
0.0013413000,100,0x1500,
0.0013428400,100,0x1500,
0.0013443600,100,0x1500,
0.0013459000,100,0x1500,
0.0013474400,100,0x1500,
0.0013498400,101,0x0000,
0.0013513800,101,0x1500,
0.0013529200,101,0x1500,
0.0013544400,101,0x1500,
0.0013559800,101,0x1500,
0.0013575200,101,0x1500,
0.0013590600,101,0x1500,
0.0013606000,101,0x1500,
0.0013630000,102,0x0000,
0.0013645200,102,0x1500,
0.0013660600,102,0x1500,
0.0013676000,102,0x1500,
0.0013691400,102,0x1500,
0.0013706800,102,0x1500,
0.0013722000,102,0x1500,
0.0013737400,102,0x1500,
0.0013761400,103,0x0000,
0.0013776800,103,0x0600,
0.0013792200,103,0x0600,
0.0013807600,103,0x0600,
0.0013823000,103,0x0600,
0.0013838200,103,0x0600,
0.0013853600,103,0x0600,
0.0013869000,103,0x0600,
0.0013895000,104,0x0000,
0.0013910200,104,0x1800,
0.0013925600,104,0x1800,
0.0013941000,104,0x1800,
0.0013956400,104,0x1800,
0.0013971600,104,0x1800,
0.0013987000,104,0x1800,
0.0014002400,104,0x1800,
0.0014026400,105,0x0000,
0.0014041800,105,0x1800,
0.0014057200,105,0x1800,
0.0014072600,105,0x1800,
0.0014087800,105,0x1800,
0.0014103200,105,0x1800,
0.0014118600,105,0x1800,
0.0014134000,105,0x1800,
0.0014158000,106,0x0000,
0.0014173200,106,0x1800,
0.0014188600,106,0x1800,
0.0014204000,106,0x1800,
0.0014219400,106,0x1800,
0.0014234800,106,0x1800,
0.0014250200,106,0x1800,
0.0014265400,106,0x1800,
0.0014289400,107,0x0000,
0.0014304800,107,0x1800,
0.0014320200,107,0x1800,
0.0014335600,107,0x1800,
0.0014351000,107,0x1800,
0.0014366200,107,0x1800,
0.0014381600,107,0x1800,
0.0014397000,107,0x1800,
0.0014421000,108,0x0000,
0.0014436400,108,0x1800,
0.0014451800,108,0x1800,
0.0014467000,108,0x1800,
0.0014482400,108,0x1800,
0.0014497800,108,0x1800,
0.0014513200,108,0x1800,
0.0014528600,108,0x1800,
0.0014552600,109,0x0000,
0.0014567800,109,0x1800,
0.0014583200,109,0x1800,
0.0014598600,109,0x1800,
0.0014614000,109,0x1800,
0.0014629200,109,0x1800,
0.0014644600,109,0x1800,
0.0014660000,109,0x1800,
0.0014684000,110,0x0000,
0.0014699400,110,0x1800,
0.0014714800,110,0x1800,
0.0014730200,110,0x1800,
0.0014745400,110,0x1800,
0.0014760800,110,0x1800,
0.0014776200,110,0x1800,
0.0014791600,110,0x1800,
0.0014815600,111,0x0000,
0.0014831000,111,0x1800,
0.0014846200,111,0x1800,
0.0014861600,111,0x1800,
0.0014877000,111,0x1800,
0.0014892400,111,0x1800,
0.0014907800,111,0x1800,
0.0014923000,111,0x1800,
0.0014947000,112,0x0000,
0.0014962400,112,0x1800,
0.0014977800,112,0x1800,
0.0014993200,112,0x1800,
0.0015008600,112,0x1800,
0.0015023800,112,0x1800,
0.0015039200,112,0x1800,
0.0015054600,112,0x1800,
0.0015078600,113,0x0000,
0.0015094000,113,0x1800,
0.0015109400,113,0x1800,
0.0015124600,113,0x1800,
0.0015140000,113,0x1800,
0.0015155400,113,0x1800,
0.0015170800,113,0x1800,
0.0015186200,113,0x1800,
0.0015210200,114,0x0000,
0.0015225400,114,0x1800,
0.0015240800,114,0x1800,
0.0015256200,114,0x1800,
0.0015271600,114,0x1800,
0.0015287000,114,0x1800,
0.0015302200,114,0x1800,
0.0015317600,114,0x1800,
0.0015341600,115,0x0000,
0.0015357000,115,0x1800,
0.0015372400,115,0x1800,
0.0015387800,115,0x1800,
0.0015403000,115,0x1800,
0.0015418400,115,0x1800,
0.0015433800,115,0x1800,
0.0015449200,115,0x1800,
0.0015473200,116,0x0000,
0.0015488600,116,0x1800,
0.0015503800,116,0x1800,
0.0015519200,116,0x1800,
0.0015534600,116,0x1800,
0.0015550000,116,0x1800,
0.0015565400,116,0x1800,
0.0015580600,116,0x1800,
0.0015604600,117,0x0000,
0.0015620000,117,0x1800,
0.0015635400,117,0x1800,
0.0015650800,117,0x1800,
0.0015666200,117,0x1800,
0.0015681400,117,0x1800,
0.0015696800,117,0x1800,
0.0015712200,117,0x1800,
0.0015736200,118,0x0000,
0.0015751600,118,0x1800,
0.0015767000,118,0x1800,
0.0015782200,118,0x1800,
0.0015797600,118,0x1800,
0.0015813000,118,0x1800,
0.0015828400,118,0x1800,
0.0015843800,118,0x1800,
0.0015867800,119,0x0000,
0.0015883000,119,0x06C0,
0.0015898400,119,0x06C0,
0.0015913800,119,0x06C0,
0.0015929200,119,0x06C0,
0.0015944600,119,0x06C0,
0.0015959800,119,0x06C0,
0.0015975200,119,0x06C0,
0.0016001200,120,0x0000,
0.0016016600,120,0x1B00,
0.0016031800,120,0x1B00,
0.0016047200,120,0x1B00,
0.0016062600,120,0x1B00,
0.0016078000,120,0x1B00,
0.0016093400,120,0x1B00,
0.0016108600,120,0x1B00,
0.0016132600,121,0x0000,
0.0016148000,121,0x1B00,
0.0016163400,121,0x1B00,
0.0016178800,121,0x1B00,
0.0016194200,121,0x1B00,
0.0016209400,121,0x1B00,
0.0016224800,121,0x1B00,
0.0016240200,121,0x1B00,
0.0016264200,122,0x0000,
0.0016279600,122,0x1B00,
0.0016295000,122,0x1B00,
0.0016310200,122,0x1B00,
0.0016325600,122,0x1B00,
0.0016341000,122,0x1B00,
0.0016356400,122,0x1B00,
0.0016371800,122,0x1B00,
0.0016395800,123,0x0000,
0.0016411000,123,0x1B00,
0.0016426400,123,0x1B00,
0.0016441800,123,0x1B00,
0.0016457200,123,0x1B00,
0.0016472600,123,0x1B00,
0.0016487800,123,0x1B00,
0.0016503200,123,0x1B00,
0.0016527200,124,0x0000,
0.0016542600,124,0x1B00,
0.0016558000,124,0x1B00,
0.0016573400,124,0x1B00,
0.0016588600,124,0x1B00,
0.0016604000,124,0x1B00,
0.0016619400,124,0x1B00,
0.0016634800,124,0x1B00,
0.0016658800,125,0x0000,
0.0016674200,125,0x1B00,
0.0016689600,125,0x1B00,
0.0016704800,125,0x1B00,
0.0016720200,125,0x1B00,
0.0016735600,125,0x1B00,
0.0016751000,125,0x1B00,
0.0016766200,125,0x1B00,
0.0016790200,126,0x0000,
0.0016805600,126,0x1B00,
0.0016821000,126,0x1B00,
0.0016836400,126,0x1B00,
0.0016851800,126,0x1B00,
0.0016867200,126,0x1B00,
0.0016882400,126,0x1B00,
0.0016897800,126,0x1B00,
0.0016921800,127,0x0000,
0.0016937200,127,0x1B00,
0.0016952600,127,0x1B00,
0.0016968000,127,0x1B00,
0.0016983200,127,0x1B00,
0.0016998600,127,0x1B00,
0.0017014000,127,0x1B00,
0.0017029400,127,0x1B00,
0.0017053400,128,0x0000,
0.0017068800,128,0x1B00,
0.0017084000,128,0x1B00,
0.0017099400,128,0x1B00,
0.0017114800,128,0x1B00,
0.0017130200,128,0x1B00,
0.0017145600,128,0x1B00,
0.0017160800,128,0x1B00,
0.0017184800,129,0x0000,
0.0017200200,129,0x1B00,
0.0017215600,129,0x1B00,
0.0017231000,129,0x1B00,
0.0017246400,129,0x1B00,
0.0017261600,129,0x1B00,
0.0017277000,129,0x1B00,
0.0017292400,129,0x1B00,
0.0017316400,130,0x0000,
0.0017331800,130,0x1B00,
0.0017347200,130,0x1B00,
0.0017362400,130,0x1B00,
0.0017377800,130,0x1B00,
0.0017393200,130,0x1B00,
0.0017408600,130,0x1B00,
0.0017424000,130,0x1B00,
0.0017448000,131,0x0000,
0.0017463200,131,0x1B00,
0.0017478600,131,0x1B00,
0.0017494000,131,0x1B00,
0.0017509400,131,0x1B00,
0.0017524800,131,0x1B00,
0.0017540000,131,0x1B00,
0.0017555400,131,0x1B00,
0.0017579400,132,0x0000,
0.0017594800,132,0x1B00,
0.0017610200,132,0x1B00,
0.0017625600,132,0x1B00,
0.0017640800,132,0x1B00,
0.0017656200,132,0x1B00,
0.0017671600,132,0x1B00,
0.0017687000,132,0x1B00,
0.0017711000,133,0x0000,
0.0017726400,133,0x1B00,
0.0017741600,133,0x1B00,
0.0017757000,133,0x1B00,
0.0017772400,133,0x1B00,
0.0017787800,133,0x1B00,
0.0017803200,133,0x1B00,
0.0017818400,133,0x1B00,
0.0017842400,134,0x0000,
0.0017857800,134,0x1B00,
0.0017873200,134,0x1B00,
0.0017888600,134,0x1B00,
0.0017904000,134,0x1B00,
0.0017919200,134,0x1B00,
0.0017934600,134,0x1B00,
0.0017950000,134,0x1B00,
0.0017974000,135,0x0000,
0.0017989400,135,0x0760,
0.0018004800,135,0x0760,
0.0018020000,135,0x0760,
0.0018035400,135,0x0760,
0.0018050800,135,0x0760,
0.0018066200,135,0x0760,
0.0018081600,135,0x0760,
0.0018107400,136,0x0000,
0.0018122800,136,0x1D80,
0.0018138200,136,0x1D80,
0.0018153600,136,0x1D80,
0.0018168800,136,0x1D80,
0.0018184200,136,0x1D80,
0.0018199600,136,0x1D80,
0.0018215000,136,0x1D80,
0.0018239000,137,0x0000,
0.0018254400,137,0x1D80,
0.0018269600,137,0x1D80,
0.0018285000,137,0x1D80,
0.0018300400,137,0x1D80,
0.0018315800,137,0x1D80,
0.0018331200,137,0x1D80,
0.0018346400,137,0x1D80,
0.0018370400,138,0x0000,
0.0018385800,138,0x1D80,
0.0018401200,138,0x1D80,
0.0018416600,138,0x1D80,
0.0018432000,138,0x1D80,
0.0018447200,138,0x1D80,
0.0018462600,138,0x1D80,
0.0018478000,138,0x1D80,
0.0018502000,139,0x0000,
0.0018517400,139,0x1D80,
0.0018532800,139,0x1D80,
0.0018548000,139,0x1D80,
0.0018563400,139,0x1D80,
0.0018578800,139,0x1D80,
0.0018594200,139,0x1D80,
0.0018609600,139,0x1D80,
0.0018633600,140,0x0000,
0.0018648800,140,0x1D80,
0.0018664200,140,0x1D80,
0.0018679600,140,0x1D80,
0.0018695000,140,0x1D80,
0.0018710400,140,0x1D80,
0.0018725600,140,0x1D80,
0.0018741000,140,0x1D80,
0.0018765000,141,0x0000,
0.0018780400,141,0x1D80,
0.0018795800,141,0x1D80,
0.0018811200,141,0x1D80,
0.0018826400,141,0x1D80,
0.0018841800,141,0x1D80,
0.0018857200,141,0x1D80,
0.0018872600,141,0x1D80,
0.0018896600,142,0x0000,
0.0018912000,142,0x1D80,
0.0018927200,142,0x1D80,
0.0018942600,142,0x1D80,
0.0018958000,142,0x1D80,
0.0018973400,142,0x1D80,
0.0018988800,142,0x1D80,
0.0019004000,142,0x1D80,
0.0019028000,143,0x0000,
0.0019043400,143,0x1D80,
0.0019058800,143,0x1D80,
0.0019074200,143,0x1D80,
0.0019089600,143,0x1D80,
0.0019104800,143,0x1D80,
0.0019120200,143,0x1D80,
0.0019135600,143,0x1D80,
0.0019159600,144,0x0000,
0.0019175000,144,0x1D80,
0.0019190400,144,0x1D80,
0.0019205600,144,0x1D80,
0.0019221000,144,0x1D80,
0.0019236400,144,0x1D80,
0.0019251800,144,0x1D80,
0.0019267200,144,0x1D80,
0.0019291200,145,0x0000,
0.0019306600,145,0x1D80,
0.0019321800,145,0x1D80,
0.0019337200,145,0x1D80,
0.0019352600,145,0x1D80,
0.0019368000,145,0x1D80,
0.0019383200,145,0x1D80,
0.0019398600,145,0x1D80,
0.0019422600,146,0x0000,
0.0019438000,146,0x1D80,
0.0019453400,146,0x1D80,
0.0019468800,146,0x1D80,
0.0019484200,146,0x1D80,
0.0019499400,146,0x1D80,
0.0019514800,146,0x1D80,
0.0019530200,146,0x1D80,
0.0019554200,147,0x0000,
0.0019569600,147,0x1D80,
0.0019585000,147,0x1D80,
0.0019600200,147,0x1D80,
0.0019615600,147,0x1D80,
0.0019631000,147,0x1D80,
0.0019646400,147,0x1D80,
0.0019661800,147,0x1D80,
0.0019685800,148,0x0000,
0.0019701000,148,0x1D80,
0.0019716400,148,0x1D80,
0.0019731800,148,0x1D80,
0.0019747200,148,0x1D80,
0.0019762600,148,0x1D80,
0.0019777800,148,0x1D80,
0.0019793200,148,0x1D80,
0.0019817200,149,0x0000,
0.0019832600,149,0x1D80,
0.0019848000,149,0x1D80,
0.0019863400,149,0x1D80,
0.0019878600,149,0x1D80,
0.0019894000,149,0x1D80,
0.0019909400,149,0x1D80,
0.0019924800,149,0x1D80,
0.0019948800,150,0x0000,
0.0019964200,150,0x1D80,
0.0019979400,150,0x1D80,
0.0019994800,150,0x1D80,
0.0020010200,150,0x1D80,
0.0020025600,150,0x1D80,
0.0020041000,150,0x1D80,
0.0020056200,150,0x1D80,
0.0020080200,151,0x0000,
0.0020095600,151,0x08A0,
0.0020111000,151,0x08A0,
0.0020126400,151,0x08A0,
0.0020141800,151,0x08A0,
0.0020157000,151,0x08A0,
0.0020172400,151,0x08A0,
0.0020187800,151,0x08A0,
0.0020213800,152,0x0000,
0.0020229000,152,0x2280,
0.0020244400,152,0x2280,
0.0020259800,152,0x2280,
0.0020275200,152,0x2280,
0.0020290600,152,0x2280,
0.0020305800,152,0x2280,
0.0020321200,152,0x2280,
0.0020345200,153,0x0000,
0.0020360600,153,0x2280,
0.0020376000,153,0x2280,
0.0020391400,153,0x2280,
0.0020406600,153,0x2280,
0.0020422000,153,0x2280,
0.0020437400,153,0x2280,
0.0020452800,153,0x2280,
0.0020476800,154,0x0000,
0.0020492200,154,0x2280,
0.0020507400,154,0x2280,
0.0020522800,154,0x2280,
0.0020538200,154,0x2280,
0.0020553600,154,0x2280,
0.0020569000,154,0x2280,
0.0020584200,154,0x2280,
0.0020608200,155,0x0000,
0.0020623600,155,0x2280,
0.0020639000,155,0x2280,
0.0020654400,155,0x2280,
0.0020669800,155,0x2280,
0.0020685000,155,0x2280,
0.0020700400,155,0x2280,
0.0020715800,155,0x2280,
0.0020739800,156,0x0000,
0.0020755200,156,0x2280,
0.0020770600,156,0x2280,
0.0020785800,156,0x2280,
0.0020801200,156,0x2280,
0.0020816600,156,0x2280,
0.0020832000,156,0x2280,
0.0020847400,156,0x2280,
0.0020871400,157,0x0000,
0.0020886600,157,0x2280,
0.0020902000,157,0x2280,
0.0020917400,157,0x2280,
0.0020932800,157,0x2280,
0.0020948200,157,0x2280,
0.0020963400,157,0x2280,
0.0020978800,157,0x2280,
0.0021002800,158,0x0000,
0.0021018200,158,0x2280,
0.0021033600,158,0x2280,
0.0021049000,158,0x2280,
0.0021064200,158,0x2280,
0.0021079600,158,0x2280,
0.0021095000,158,0x2280,
0.0021110400,158,0x2280,
0.0021134400,159,0x0000,
0.0021149800,159,0x2280,
0.0021165000,159,0x2280,
0.0021180400,159,0x2280,
0.0021195800,159,0x2280,
0.0021211200,159,0x2280,
0.0021226600,159,0x2280,
0.0021241800,159,0x2280,
0.0021265800,160,0x0000,
0.0021281200,160,0x2280,
0.0021296600,160,0x2280,
0.0021312000,160,0x2280,
0.0021327400,160,0x2280,
0.0021342600,160,0x2280,
0.0021358000,160,0x2280,
0.0021373400,160,0x2280,
0.0021397400,161,0x0000,
0.0021412800,161,0x2280,
0.0021428200,161,0x2280,
0.0021443400,161,0x2280,
0.0021458800,161,0x2280,
0.0021474200,161,0x2280,
0.0021489600,161,0x2280,
0.0021505000,161,0x2280,
0.0021529000,162,0x0000,
0.0021544200,162,0x2280,
0.0021559600,162,0x2280,
0.0021575000,162,0x2280,
0.0021590400,162,0x2280,
0.0021605800,162,0x2280,
0.0021621000,162,0x2280,
0.0021636400,162,0x2280,
0.0021660400,163,0x0000,
0.0021675800,163,0x2280,
0.0021691200,163,0x2280,
0.0021706600,163,0x2280,
0.0021721800,163,0x2280,
0.0021737200,163,0x2280,
0.0021752600,163,0x2280,
0.0021768000,163,0x2280,
0.0021792000,164,0x0000,
0.0021807400,164,0x2280,
0.0021822600,164,0x2280,
0.0021838000,164,0x2280,
0.0021853400,164,0x2280,
0.0021868800,164,0x2280,
0.0021884200,164,0x2280,
0.0021899600,164,0x2280,
0.0021923600,165,0x0000,
0.0021938800,165,0x2280,
0.0021954200,165,0x2280,
0.0021969600,165,0x2280,
0.0021985000,165,0x2280,
0.0022000200,165,0x2280,
0.0022015600,165,0x2280,
0.0022031000,165,0x2280,
0.0022055000,166,0x0000,
0.0022070400,166,0x2280,
0.0022085800,166,0x2280,
0.0022101000,166,0x2280,
0.0022116400,166,0x2280,
0.0022131800,166,0x2280,
0.0022147200,166,0x2280,
0.0022162600,166,0x2280,
0.0022186600,167,0x0000,
0.0022202000,167,0x0980,
0.0022217200,167,0x0980,
0.0022232600,167,0x0980,
0.0022248000,167,0x0980,
0.0022263400,167,0x0980,
0.0022278800,167,0x0980,
0.0022294000,167,0x0980,
0.0022320000,168,0x0000,
0.0022335400,168,0x2600,
0.0022350800,168,0x2600,
0.0022366000,168,0x2600,
0.0022381400,168,0x2600,
0.0022396800,168,0x2600,
0.0022412200,168,0x2600,
0.0022427600,168,0x2600,
0.0022451600,169,0x0000,
0.0022466800,169,0x2600,
0.0022482200,169,0x2600,
0.0022497600,169,0x2600,
0.0022513000,169,0x2600,
0.0022528400,169,0x2600,
0.0022543600,169,0x2600,
0.0022559000,169,0x2600,
0.0022583000,170,0x0000,
0.0022598400,170,0x2600,
0.0022613800,170,0x2600,
0.0022629200,170,0x2600,
0.0022644400,170,0x2600,
0.0022659800,170,0x2600,
0.0022675200,170,0x2600,
0.0022690600,170,0x2600,
0.0022714600,171,0x0000,
0.0022730000,171,0x2600,
0.0022745200,171,0x2600,
0.0022760600,171,0x2600,
0.0022776000,171,0x2600,
0.0022791400,171,0x2600,
0.0022806800,171,0x2600,
0.0022822000,171,0x2600,
0.0022846000,172,0x0000,
0.0022861400,172,0x2600,
0.0022876800,172,0x2600,
0.0022892200,172,0x2600,
0.0022907600,172,0x2600,
0.0022922800,172,0x2600,
0.0022938200,172,0x2600,
0.0022953600,172,0x2600,
0.0022977600,173,0x0000,
0.0022993000,173,0x2600,
0.0023008400,173,0x2600,
0.0023023600,173,0x2600,
0.0023039000,173,0x2600,
0.0023054400,173,0x2600,
0.0023069800,173,0x2600,
0.0023085200,173,0x2600,
0.0023109200,174,0x0000,
0.0023124400,174,0x2600,
0.0023139800,174,0x2600,
0.0023155200,174,0x2600,
0.0023170600,174,0x2600,
0.0023186000,174,0x2600,
0.0023201200,174,0x2600,
0.0023216600,174,0x2600,
0.0023240600,175,0x0000,
0.0023256000,175,0x2600,
0.0023271400,175,0x2600,
0.0023286800,175,0x2600,
0.0023302000,175,0x2600,
0.0023317400,175,0x2600,
0.0023332800,175,0x2600,
0.0023348200,175,0x2600,
0.0023372200,176,0x0000,
0.0023387600,176,0x2600,
0.0023402800,176,0x2600,
0.0023418200,176,0x2600,
0.0023433600,176,0x2600,
0.0023449000,176,0x2600,
0.0023464400,176,0x2600,
0.0023479600,176,0x2600,
0.0023503600,177,0x0000,
0.0023519000,177,0x2600,
0.0023534400,177,0x2600,
0.0023549800,177,0x2600,
0.0023565200,177,0x2600,
0.0023580400,177,0x2600,
0.0023595800,177,0x2600,
0.0023611200,177,0x2600,
0.0023635200,178,0x0000,
0.0023650600,178,0x2600,
0.0023666000,178,0x2600,
0.0023681200,178,0x2600,
0.0023696600,178,0x2600,
0.0023712000,178,0x2600,
0.0023727400,178,0x2600,
0.0023742800,178,0x2600,
0.0023766800,179,0x0000,
0.0023782000,179,0x2600,
0.0023797400,179,0x2600,
0.0023812800,179,0x2600,
0.0023828200,179,0x2600,
0.0023843600,179,0x2600,
0.0023858800,179,0x2600,
0.0023874200,179,0x2600,
0.0023898200,180,0x0000,
0.0023913600,180,0x2600,
0.0023929000,180,0x2600,
0.0023944400,180,0x2600,
0.0023959600,180,0x2600,
0.0023975000,180,0x2600,
0.0023990400,180,0x2600,
0.0024005800,180,0x2600,
0.0024029800,181,0x0000,
0.0024045200,181,0x2600,
0.0024060400,181,0x2600,
0.0024075800,181,0x2600,
0.0024091200,181,0x2600,
0.0024106600,181,0x2600,
0.0024122000,181,0x2600,
0.0024137200,181,0x2600,
0.0024161200,182,0x0000,
0.0024176600,182,0x2600,
0.0024192000,182,0x2600,
0.0024207400,182,0x2600,
0.0024222800,182,0x2600,
0.0024238000,182,0x2600,
0.0024253400,182,0x2600,
0.0024268800,182,0x2600,
0.0024292800,183,0x0000,
0.0024308200,183,0x0B00,
0.0024323600,183,0x0B00,
0.0024339000,183,0x0B00,
0.0024354200,183,0x0B00,
0.0024369600,183,0x0B00,
0.0024385000,183,0x0B00,
0.0024400400,183,0x0B00,
0.0024426200,184,0x0000,
0.0024441600,184,0x2C00,
0.0024457000,184,0x2C00,
0.0024472400,184,0x2C00,
0.0024487600,184,0x2C00,
0.0024503000,184,0x2C00,
0.0024518400,184,0x2C00,
0.0024533800,184,0x2C00,
0.0024557800,185,0x0000,
0.0024573200,185,0x2C00,
0.0024588600,185,0x2C00,
0.0024603800,185,0x2C00,
0.0024619200,185,0x2C00,
0.0024634600,185,0x2C00,
0.0024650000,185,0x2C00,
0.0024665200,185,0x2C00,
0.0024689200,186,0x0000,
0.0024704600,186,0x2C00,
0.0024720000,186,0x2C00,
0.0024735400,186,0x2C00,
0.0024750800,186,0x2C00,
0.0024766200,186,0x2C00,
0.0024781400,186,0x2C00,
0.0024796800,186,0x2C00,
0.0024820800,187,0x0000,
0.0024836200,187,0x2C00,
0.0024851600,187,0x2C00,
0.0024867000,187,0x2C00,
0.0024882200,187,0x2C00,
0.0024897600,187,0x2C00,
0.0024913000,187,0x2C00,
0.0024928400,187,0x2C00,
0.0024952400,188,0x0000,
0.0024967800,188,0x2C00,
0.0024983000,188,0x2C00,
0.0024998400,188,0x2C00,
0.0025013800,188,0x2C00,
0.0025029200,188,0x2C00,
0.0025044600,188,0x2C00,
0.0025059800,188,0x2C00,
0.0025083800,189,0x0000,
0.0025099200,189,0x2C00,
0.0025114600,189,0x2C00,
0.0025130000,189,0x2C00,
0.0025145400,189,0x2C00,
0.0025160600,189,0x2C00,
0.0025176000,189,0x2C00,
0.0025191400,189,0x2C00,
0.0025215400,190,0x0000,
0.0025230800,190,0x2C00,
0.0025246200,190,0x2C00,
0.0025261400,190,0x2C00,
0.0025276800,190,0x2C00,
0.0025292200,190,0x2C00,
0.0025307600,190,0x2C00,
0.0025323000,190,0x2C00,
0.0025347000,191,0x0000,
0.0025362200,191,0x2C00,
0.0025377600,191,0x2C00,
0.0025393000,191,0x2C00,
0.0025408400,191,0x2C00,
0.0025423800,191,0x2C00,
0.0025439000,191,0x2C00,
0.0025454400,191,0x2C00,
0.0025478400,192,0x0000,
0.0025493800,192,0x2C00,
0.0025509200,192,0x2C00,
0.0025524600,192,0x2C00,
0.0025539800,192,0x2C00,
0.0025555200,192,0x2C00,
0.0025570600,192,0x2C00,
0.0025586000,192,0x2C00,
0.0025610000,193,0x0000,
0.0025625400,193,0x2C00,
0.0025640600,193,0x2C00,
0.0025656000,193,0x2C00,
0.0025671400,193,0x2C00,
0.0025686800,193,0x2C00,
0.0025702200,193,0x2C00,
0.0025717400,193,0x2C00,
0.0025741400,194,0x0000,
0.0025756800,194,0x2C00,
0.0025772200,194,0x2C00,
0.0025787600,194,0x2C00,
0.0025803000,194,0x2C00,
0.0025818200,194,0x2C00,
0.0025833600,194,0x2C00,
0.0025849000,194,0x2C00,
0.0025873000,195,0x0000,
0.0025888400,195,0x2C00,
0.0025903800,195,0x2C00,
0.0025919000,195,0x2C00,
0.0025934400,195,0x2C00,
0.0025949800,195,0x2C00,
0.0025965200,195,0x2C00,
0.0025980600,195,0x2C00,
0.0026004600,196,0x0000,
0.0026019800,196,0x2C00,
0.0026035200,196,0x2C00,
0.0026050600,196,0x2C00,
0.0026066000,196,0x2C00,
0.0026081400,196,0x2C00,
0.0026096600,196,0x2C00,
0.0026112000,196,0x2C00,
0.0026136000,197,0x0000,
0.0026151400,197,0x2C00,
0.0026166800,197,0x2C00,
0.0026182200,197,0x2C00,
0.0026197400,197,0x2C00,
0.0026212800,197,0x2C00,
0.0026228200,197,0x2C00,
0.0026243600,197,0x2C00,
0.0026267600,198,0x0000,
0.0026283000,198,0x2C00,
0.0026298200,198,0x2C00,
0.0026313600,198,0x2C00,
0.0026329000,198,0x2C00,
0.0026344400,198,0x2C00,
0.0026359800,198,0x2C00,
0.0026375000,198,0x2C00,
0.0026399000,199,0x0000,
0.0026414400,199,0x0C00,
0.0026429800,199,0x0C00,
0.0026445200,199,0x0C00,
0.0026460600,199,0x0C00,
0.0026475800,199,0x0C00,
0.0026491200,199,0x0C00,
0.0026506600,199,0x0C00,
0.0026532600,200,0x0000,
0.0026547800,200,0x3000,
0.0026563200,200,0x3000,
0.0026578600,200,0x3000,
0.0026594000,200,0x3000,
0.0026609400,200,0x3000,
0.0026624600,200,0x3000,
0.0026640000,200,0x3000,
0.0026664000,201,0x0000,
0.0026679400,201,0x3000,
0.0026694800,201,0x3000,
0.0026710200,201,0x3000,
0.0026725400,201,0x3000,
0.0026740800,201,0x3000,
0.0026756200,201,0x3000,
0.0026771600,201,0x3000,
0.0026795600,202,0x0000,
0.0026811000,202,0x3000,
0.0026826200,202,0x3000,
0.0026841600,202,0x3000,
0.0026857000,202,0x3000,
0.0026872400,202,0x3000,
0.0026887800,202,0x3000,
0.0026903000,202,0x3000,
0.0026927000,203,0x0000,
0.0026942400,203,0x3000,
0.0026957800,203,0x3000,
0.0026973200,203,0x3000,
0.0026988600,203,0x3000,
0.0027003800,203,0x3000,
0.0027019200,203,0x3000,
0.0027034600,203,0x3000,
0.0027058600,204,0x0000,
0.0027074000,204,0x3000,
0.0027089400,204,0x3000,
0.0027104800,204,0x3000,
0.0027120000,204,0x3000,
0.0027135400,204,0x3000,
0.0027150800,204,0x3000,
0.0027166200,204,0x3000,
0.0027190200,205,0x0000,
0.0027205600,205,0x3000,
0.0027220800,205,0x3000,
0.0027236200,205,0x3000,
0.0027251600,205,0x3000,
0.0027267000,205,0x3000,
0.0027282200,205,0x3000,
0.0027297600,205,0x3000,
0.0027321600,206,0x0000,
0.0027337000,206,0x3000,
0.0027352400,206,0x3000,
0.0027367800,206,0x3000,
0.0027383200,206,0x3000,
0.0027398400,206,0x3000,
0.0027413800,206,0x3000,
0.0027429200,206,0x3000,
0.0027453200,207,0x0000,
0.0027468600,207,0x3000,
0.0027484000,207,0x3000,
0.0027499200,207,0x3000,
0.0027514600,207,0x3000,
0.0027530000,207,0x3000,
0.0027545400,207,0x3000,
0.0027560800,207,0x3000,
0.0027584800,208,0x0000,
0.0027600000,208,0x3000,
0.0027615400,208,0x3000,
0.0027630800,208,0x3000,
0.0027646200,208,0x3000,
0.0027661600,208,0x3000,
0.0027676800,208,0x3000,
0.0027692200,208,0x3000,
0.0027716200,209,0x0000,
0.0027731600,209,0x3000,
0.0027747000,209,0x3000,
0.0027762400,209,0x3000,
0.0027777600,209,0x3000,
0.0027793000,209,0x3000,
0.0027808400,209,0x3000,
0.0027823800,209,0x3000,
0.0027847800,210,0x0000,
0.0027863200,210,0x3000,
0.0027878400,210,0x3000,
0.0027893800,210,0x3000,
0.0027909200,210,0x3000,
0.0027924600,210,0x3000,
0.0027940000,210,0x3000,
0.0027955200,210,0x3000,
0.0027979200,211,0x0000,
0.0027994600,211,0x3000,
0.0028010000,211,0x3000,
0.0028025400,211,0x3000,
0.0028040800,211,0x3000,
0.0028056000,211,0x3000,
0.0028071400,211,0x3000,
0.0028086800,211,0x3000,
0.0028110800,212,0x0000,
0.0028126200,212,0x3000,
0.0028141600,212,0x3000,
0.0028156800,212,0x3000,
0.0028172200,212,0x3000,
0.0028187600,212,0x3000,
0.0028203000,212,0x3000,
0.0028218400,212,0x3000,
0.0028242400,213,0x0000,
0.0028257600,213,0x3000,
0.0028273000,213,0x3000,
0.0028288400,213,0x3000,
0.0028303800,213,0x3000,
0.0028319200,213,0x3000,
0.0028334400,213,0x3000,
0.0028349800,213,0x3000,
0.0028373800,214,0x0000,
0.0028389200,214,0x3000,
0.0028404600,214,0x3000,
0.0028420000,214,0x3000,
0.0028435200,214,0x3000,
0.0028450600,214,0x3000,
0.0028466000,214,0x3000,
0.0028481400,214,0x3000,
0.0028505400,215,0x0000,
0.0028520800,215,0x0DE0,
0.0028536000,215,0x0DE0,
0.0028551400,215,0x0DE0,
0.0028566800,215,0x0DE0,
0.0028582200,215,0x0DE0,
0.0028597600,215,0x0DE0,
0.0028612800,215,0x0DE0,
0.0028638800,216,0x0000,
0.0028654200,216,0x3780,
0.0028669600,216,0x3780,
0.0028684800,216,0x3780,
0.0028700200,216,0x3780,
0.0028715600,216,0x3780,
0.0028731000,216,0x3780,
0.0028746400,216,0x3780,
0.0028770400,217,0x0000,
0.0028785600,217,0x3780,
0.0028801000,217,0x3780,
0.0028816400,217,0x3780,
0.0028831800,217,0x3780,
0.0028847200,217,0x3780,
0.0028862400,217,0x3780,
0.0028877800,217,0x3780,
0.0028901800,218,0x0000,
0.0028917200,218,0x3780,
0.0028932600,218,0x3780,
0.0028948000,218,0x3780,
0.0028963200,218,0x3780,
0.0028978600,218,0x3780,
0.0028994000,218,0x3780,
0.0029009400,218,0x3780,
0.0029033400,219,0x0000,
0.0029048800,219,0x3780,
0.0029064000,219,0x3780,
0.0029079400,219,0x3780,
0.0029094800,219,0x3780,
0.0029110200,219,0x3780,
0.0029125600,219,0x3780,
0.0029140800,219,0x3780,
0.0029164800,220,0x0000,
0.0029180200,220,0x3780,
0.0029195600,220,0x3780,
0.0029211000,220,0x3780,
0.0029226400,220,0x3780,
0.0029241600,220,0x3780,
0.0029257000,220,0x3780,
0.0029272400,220,0x3780,
0.0029296400,221,0x0000,
0.0029311800,221,0x3780,
0.0029327200,221,0x3780,
0.0029342400,221,0x3780,
0.0029357800,221,0x3780,
0.0029373200,221,0x3780,
0.0029388600,221,0x3780,
0.0029404000,221,0x3780,
0.0029428000,222,0x0000,
0.0029443200,222,0x3780,
0.0029458600,222,0x3780,
0.0029474000,222,0x3780,
0.0029489400,222,0x3780,
0.0029504800,222,0x3780,
0.0029520000,222,0x3780,
0.0029535400,222,0x3780,
0.0029559400,223,0x0000,
0.0029574800,223,0x3780,
0.0029590200,223,0x3780,
0.0029605600,223,0x3780,
0.0029620800,223,0x3780,
0.0029636200,223,0x3780,
0.0029651600,223,0x3780,
0.0029667000,223,0x3780,
0.0029691000,224,0x0000,
0.0029706400,224,0x3780,
0.0029721600,224,0x3780,
0.0029737000,224,0x3780,
0.0029752400,224,0x3780,
0.0029767800,224,0x3780,
0.0029783200,224,0x3780,
0.0029798400,224,0x3780,
0.0029822400,225,0x0000,
0.0029837800,225,0x3780,
0.0029853200,225,0x3780,
0.0029868600,225,0x3780,
0.0029884000,225,0x3780,
0.0029899200,225,0x3780,
0.0029914600,225,0x3780,
0.0029930000,225,0x3780,
0.0029954000,226,0x0000,
0.0029969400,226,0x3780,
0.0029984800,226,0x3780,
0.0030000000,226,0x3780,
0.0030015400,226,0x3780,
0.0030030800,226,0x3780,
0.0030046200,226,0x3780,
0.0030061600,226,0x3780,
0.0030085600,227,0x0000,
0.0030101000,227,0x3780,
0.0030116200,227,0x3780,
0.0030131600,227,0x3780,
0.0030147000,227,0x3780,
0.0030162400,227,0x3780,
0.0030177800,227,0x3780,
0.0030193000,227,0x3780,
0.0030217000,228,0x0000,
0.0030232400,228,0x3780,
0.0030247800,228,0x3780,
0.0030263200,228,0x3780,
0.0030278600,228,0x3780,
0.0030293800,228,0x3780,
0.0030309200,228,0x3780,
0.0030324600,228,0x3780,
0.0030348600,229,0x0000,
0.0030364000,229,0x3780,
0.0030379200,229,0x3780,
0.0030394600,229,0x3780,
0.0030410000,229,0x3780,
0.0030425400,229,0x3780,
0.0030440800,229,0x3780,
0.0030456200,229,0x3780,
0.0030480200,230,0x0000,
0.0030495400,230,0x3780,
0.0030510800,230,0x3780,
0.0030526200,230,0x3780,
0.0030541600,230,0x3780,
0.0030557000,230,0x3780,
0.0030572200,230,0x3780,
0.0030587600,230,0x3780,
0.0030611600,231,0x0000,
0.0030627000,231,0x0F20,
0.0030642400,231,0x0F20,
0.0030657800,231,0x0F20,
0.0030673000,231,0x0F20,
0.0030688400,231,0x0F20,
0.0030703800,231,0x0F20,
0.0030719200,231,0x0F20,
0.0030745000,232,0x0000,
0.0030760400,232,0x3C80,
0.0030775800,232,0x3C80,
0.0030791200,232,0x3C80,
0.0030806600,232,0x3C80,
0.0030821800,232,0x3C80,
0.0030837200,232,0x3C80,
0.0030852600,232,0x3C80,
0.0030876600,233,0x0000,
0.0030892000,233,0x3C80,
0.0030907400,233,0x3C80,
0.0030922600,233,0x3C80,
0.0030938000,233,0x3C80,
0.0030953400,233,0x3C80,
0.0030968800,233,0x3C80,
0.0030984200,233,0x3C80,
0.0031008200,234,0x0000,
0.0031023400,234,0x3C80,
0.0031038800,234,0x3C80,
0.0031054200,234,0x3C80,
0.0031069600,234,0x3C80,
0.0031085000,234,0x3C80,
0.0031100200,234,0x3C80,
0.0031115600,234,0x3C80,
0.0031139600,235,0x0000,
0.0031155000,235,0x3C80,
0.0031170400,235,0x3C80,
0.0031185800,235,0x3C80,
0.0031201000,235,0x3C80,
0.0031216400,235,0x3C80,
0.0031231800,235,0x3C80,
0.0031247200,235,0x3C80,
0.0031271200,236,0x0000,
0.0031286600,236,0x3C80,
0.0031301800,236,0x3C80,
0.0031317200,236,0x3C80,
0.0031332600,236,0x3C80,
0.0031348000,236,0x3C80,
0.0031363400,236,0x3C80,
0.0031378600,236,0x3C80,
0.0031402600,237,0x0000,
0.0031418000,237,0x3C80,
0.0031433400,237,0x3C80,
0.0031448800,237,0x3C80,
0.0031464200,237,0x3C80,
0.0031479400,237,0x3C80,
0.0031494800,237,0x3C80,
0.0031510200,237,0x3C80,
0.0031534200,238,0x0000,
0.0031549600,238,0x3C80,
0.0031565000,238,0x3C80,
0.0031580200,238,0x3C80,
0.0031595600,238,0x3C80,
0.0031611000,238,0x3C80,
0.0031626400,238,0x3C80,
0.0031641800,238,0x3C80,
0.0031665800,239,0x0000,
0.0031681000,239,0x3C80,
0.0031696400,239,0x3C80,
0.0031711800,239,0x3C80,
0.0031727200,239,0x3C80,
0.0031742600,239,0x3C80,
0.0031757800,239,0x3C80,
0.0031773200,239,0x3C80,
0.0031797200,240,0x0000,
0.0031812600,240,0x3C80,
0.0031828000,240,0x3C80,
0.0031843400,240,0x3C80,
0.0031858600,240,0x3C80,
0.0031874000,240,0x3C80,
0.0031889400,240,0x3C80,
0.0031904800,240,0x3C80,
0.0031928800,241,0x0000,
0.0031944200,241,0x3C80,
0.0031959400,241,0x3C80,
0.0031974800,241,0x3C80,
0.0031990200,241,0x3C80,
0.0032005600,241,0x3C80,
0.0032021000,241,0x3C80,
0.0032036200,241,0x3C80,
0.0032060200,242,0x0000,
0.0032075600,242,0x3C80,
0.0032091000,242,0x3C80,
0.0032106400,242,0x3C80,
0.0032121800,242,0x3C80,
0.0032137000,242,0x3C80,
0.0032152400,242,0x3C80,
0.0032167800,242,0x3C80,
0.0032191800,243,0x0000,
0.0032207200,243,0x3C80,
0.0032222600,243,0x3C80,
0.0032237800,243,0x3C80,
0.0032253200,243,0x3C80,
0.0032268600,243,0x3C80,
0.0032284000,243,0x3C80,
0.0032299400,243,0x3C80,
0.0032323400,244,0x0000,
0.0032338600,244,0x3C80,
0.0032354000,244,0x3C80,
0.0032369400,244,0x3C80,
0.0032384800,244,0x3C80,
0.0032400200,244,0x3C80,
0.0032415400,244,0x3C80,
0.0032430800,244,0x3C80,
0.0032454800,245,0x0000,
0.0032470200,245,0x3C80,
0.0032485600,245,0x3C80,
0.0032501000,245,0x3C80,
0.0032516200,245,0x3C80,
0.0032531600,245,0x3C80,
0.0032547000,245,0x3C80,
0.0032562400,245,0x3C80,
0.0032586400,246,0x0000,
0.0032601800,246,0x3C80,
0.0032617000,246,0x3C80,
0.0032632400,246,0x3C80,
0.0032647800,246,0x3C80,
0.0032663200,246,0x3C80,
0.0032678600,246,0x3C80,
0.0032694000,246,0x3C80,
0.0032718000,247,0x0000,
0.0032733200,247,0x1160,
0.0032748600,247,0x1160,
0.0032764000,247,0x1160,
0.0032779400,247,0x1160,
0.0032794800,247,0x1160,
0.0032810000,247,0x1160,
0.0032825400,247,0x1160,
0.0032851400,248,0x0000,
0.0032866800,248,0x4580,
0.0032882000,248,0x4580,
0.0032897400,248,0x4580,
0.0032912800,248,0x4580,
0.0032928200,248,0x4580,
0.0032943600,248,0x4580,
0.0032958800,248,0x4580,
0.0032982800,249,0x0000,
0.0032998200,249,0x4580,
0.0033013600,249,0x4580,
0.0033029000,249,0x4580,
0.0033044400,249,0x4580,
0.0033059600,249,0x4580,
0.0033075000,249,0x4580,
0.0033090400,249,0x4580,
0.0033114400,250,0x0000,
0.0033129800,250,0x4580,
0.0033145200,250,0x4580,
0.0033160400,250,0x4580,
0.0033175800,250,0x4580,
0.0033191200,250,0x4580,
0.0033206600,250,0x4580,
0.0033222000,250,0x4580,
0.0033246000,251,0x0000,
0.0033261200,251,0x4580,
0.0033276600,251,0x4580,
0.0033292000,251,0x4580,
0.0033307400,251,0x4580,
0.0033322800,251,0x4580,
0.0033338000,251,0x4580,
0.0033353400,251,0x4580,
0.0033377400,252,0x0000,
0.0033392800,252,0x4580,
0.0033408200,252,0x4580,
0.0033423600,252,0x4580,
0.0033438800,252,0x4580,
0.0033454200,252,0x4580,
0.0033469600,252,0x4580,
0.0033485000,252,0x4580,
0.0033509000,253,0x0000,
0.0033524400,253,0x4580,
0.0033539600,253,0x4580,
0.0033555000,253,0x4580,
0.0033570400,253,0x4580,
0.0033585800,253,0x4580,
0.0033601200,253,0x4580,
0.0033616400,253,0x4580,
0.0033640400,254,0x0000,
0.0033655800,254,0x4580,
0.0033671200,254,0x4580,
0.0033686600,254,0x4580,
0.0033702000,254,0x4580,
0.0033717200,254,0x4580,
0.0033732600,254,0x4580,
0.0033748000,254,0x4580,
0.0033772000,255,0x0000,
0.0033787400,255,0x4580,
0.0033802800,255,0x4580,
0.0033818000,255,0x4580,
0.0033833400,255,0x4580,
0.0033848800,255,0x4580,
0.0033864200,255,0x4580,
0.0033879600,255,0x4580,
0.0033903600,256,0x0000,
0.0033918800,256,0x4580,
0.0033934200,256,0x4580,
0.0033949600,256,0x4580,
0.0033965000,256,0x4580,
0.0033980400,256,0x4580,
0.0033995600,256,0x4580,
0.0034011000,256,0x4580,
0.0034035000,257,0x0000,
0.0034050400,257,0x4580,
0.0034065800,257,0x4580,
0.0034081200,257,0x4580,
0.0034096400,257,0x4580,
0.0034111800,257,0x4580,
0.0034127200,257,0x4580,
0.0034142600,257,0x4580,
0.0034166600,258,0x0000,
0.0034182000,258,0x4580,
0.0034197200,258,0x4580,
0.0034212600,258,0x4580,
0.0034228000,258,0x4580,
0.0034243400,258,0x4580,
0.0034258800,258,0x4580,
0.0034274000,258,0x4580,
0.0034298000,259,0x0000,
0.0034313400,259,0x4580,
0.0034328800,259,0x4580,
0.0034344200,259,0x4580,
0.0034359600,259,0x4580,
0.0034374800,259,0x4580,
0.0034390200,259,0x4580,
0.0034405600,259,0x4580,
0.0034429600,260,0x0000,
0.0034445000,260,0x4580,
0.0034460400,260,0x4580,
0.0034475600,260,0x4580,
0.0034491000,260,0x4580,
0.0034506400,260,0x4580,
0.0034521800,260,0x4580,
0.0034537200,260,0x4580,
0.0034561200,261,0x0000,
0.0034576400,261,0x4580,
0.0034591800,261,0x4580,
0.0034607200,261,0x4580,
0.0034622600,261,0x4580,
0.0034638000,261,0x4580,
0.0034653200,261,0x4580,
0.0034668600,261,0x4580,
0.0034692600,262,0x0000,
0.0034708000,262,0x4580,
0.0034723400,262,0x4580,
0.0034738800,262,0x4580,
0.0034754000,262,0x4580,
0.0034769400,262,0x4580,
0.0034784800,262,0x4580,
0.0034800200,262,0x4580,
0.0034824200,263,0x0000,
0.0034839600,263,0x12E0,
0.0034854800,263,0x12E0,
0.0034870200,263,0x12E0,
0.0034885600,263,0x12E0,
0.0034901000,263,0x12E0,
0.0034916400,263,0x12E0,
0.0034931600,263,0x12E0,
0.0034957600,264,0x0000,
0.0034973000,264,0x4B80,
0.0034988400,264,0x4B80,
0.0035003600,264,0x4B80,
0.0035019000,264,0x4B80,
0.0035034400,264,0x4B80,
0.0035049800,264,0x4B80,
0.0035065200,264,0x4B80,
0.0035089200,265,0x0000,
0.0035104600,265,0x4B80,
0.0035119800,265,0x4B80,
0.0035135200,265,0x4B80,
0.0035150600,265,0x4B80,
0.0035166000,265,0x4B80,
0.0035181200,265,0x4B80,
0.0035196600,265,0x4B80,
0.0035220600,266,0x0000,
0.0035236000,266,0x4B80,
0.0035251400,266,0x4B80,
0.0035266800,266,0x4B80,
0.0035282000,266,0x4B80,
0.0035297400,266,0x4B80,
0.0035312800,266,0x4B80,
0.0035328200,266,0x4B80,
0.0035352200,267,0x0000,
0.0035367600,267,0x4B80,
0.0035383000,267,0x4B80,
0.0035398200,267,0x4B80,
0.0035413600,267,0x4B80,
0.0035429000,267,0x4B80,
0.0035444400,267,0x4B80,
0.0035459800,267,0x4B80,
0.0035483800,268,0x0000,
0.0035499000,268,0x4B80,
0.0035514400,268,0x4B80,
0.0035529800,268,0x4B80,
0.0035545200,268,0x4B80,
0.0035560600,268,0x4B80,
0.0035575800,268,0x4B80,
0.0035591200,268,0x4B80,
0.0035615200,269,0x0000,
0.0035630600,269,0x4B80,
0.0035646000,269,0x4B80,
0.0035661400,269,0x4B80,
0.0035676600,269,0x4B80,
0.0035692000,269,0x4B80,
0.0035707400,269,0x4B80,
0.0035722800,269,0x4B80,
0.0035746800,270,0x0000,
0.0035762200,270,0x4B80,
0.0035777400,270,0x4B80,
0.0035792800,270,0x4B80,
0.0035808200,270,0x4B80,
0.0035823600,270,0x4B80,
0.0035839000,270,0x4B80,
0.0035854200,270,0x4B80,
0.0035878200,271,0x0000,
0.0035893600,271,0x4B80,
0.0035909000,271,0x4B80,
0.0035924400,271,0x4B80,
0.0035939800,271,0x4B80,
0.0035955000,271,0x4B80,
0.0035970400,271,0x4B80,
0.0035985800,271,0x4B80,
0.0036009800,272,0x0000,
0.0036025200,272,0x4B80,
0.0036040600,272,0x4B80,
0.0036055800,272,0x4B80,
0.0036071200,272,0x4B80,
0.0036086600,272,0x4B80,
0.0036102000,272,0x4B80,
0.0036117400,272,0x4B80,
0.0036141400,273,0x0000,
0.0036156600,273,0x4B80,
0.0036172000,273,0x4B80,
0.0036187400,273,0x4B80,
0.0036202800,273,0x4B80,
0.0036218200,273,0x4B80,
0.0036233400,273,0x4B80,
0.0036248800,273,0x4B80,
0.0036272800,274,0x0000,
0.0036288200,274,0x4B80,
0.0036303600,274,0x4B80,
0.0036319000,274,0x4B80,
0.0036334200,274,0x4B80,
0.0036349600,274,0x4B80,
0.0036365000,274,0x4B80,
0.0036380400,274,0x4B80,
0.0036404400,275,0x0000,
0.0036419800,275,0x4B80,
0.0036435000,275,0x4B80,
0.0036450400,275,0x4B80,
0.0036465800,275,0x4B80,
0.0036481200,275,0x4B80,
0.0036496600,275,0x4B80,
0.0036511800,275,0x4B80,
0.0036535800,276,0x0000,
0.0036551200,276,0x4B80,
0.0036566600,276,0x4B80,
0.0036582000,276,0x4B80,
0.0036597400,276,0x4B80,
0.0036612600,276,0x4B80,
0.0036628000,276,0x4B80,
0.0036643400,276,0x4B80,
0.0036667400,277,0x0000,
0.0036682800,277,0x4B80,
0.0036698200,277,0x4B80,
0.0036713400,277,0x4B80,
0.0036728800,277,0x4B80,
0.0036744200,277,0x4B80,
0.0036759600,277,0x4B80,
0.0036775000,277,0x4B80,
0.0036799000,278,0x0000,
0.0036814200,278,0x4B80,
0.0036829600,278,0x4B80,
0.0036845000,278,0x4B80,
0.0036860400,278,0x4B80,
0.0036875800,278,0x4B80,
0.0036891000,278,0x4B80,
0.0036906400,278,0x4B80,
0.0036930400,279,0x0000,
0.0036945800,279,0x1580,
0.0036961200,279,0x1580,
0.0036976600,279,0x1580,
0.0036991800,279,0x1580,
0.0037007200,279,0x1580,
0.0037022600,279,0x1580,
0.0037038000,279,0x1580,
0.0037063800,280,0x0000,
0.0037079200,280,0x5600,
0.0037094600,280,0x5600,
0.0037110000,280,0x5600,
0.0037125400,280,0x5600,
0.0037140600,280,0x5600,
0.0037156000,280,0x5600,
0.0037171400,280,0x5600,
0.0037195400,281,0x0000,
0.0037210800,281,0x5600,
0.0037226200,281,0x5600,
0.0037241400,281,0x5600,
0.0037256800,281,0x5600,
0.0037272200,281,0x5600,
0.0037287600,281,0x5600,
0.0037303000,281,0x5600,
0.0037327000,282,0x0000,
0.0037342200,282,0x5600,
0.0037357600,282,0x5600,
0.0037373000,282,0x5600,
0.0037388400,282,0x5600,
0.0037403800,282,0x5600,
0.0037419000,282,0x5600,
0.0037434400,282,0x5600,
0.0037458400,283,0x0000,
0.0037473800,283,0x5600,
0.0037489200,283,0x5600,
0.0037504600,283,0x5600,
0.0037519800,283,0x5600,
0.0037535200,283,0x5600,
0.0037550600,283,0x5600,
0.0037566000,283,0x5600,
0.0037590000,284,0x0000,
0.0037605400,284,0x5600,
0.0037620600,284,0x5600,
0.0037636000,284,0x5600,
0.0037651400,284,0x5600,
0.0037666800,284,0x5600,
0.0037682200,284,0x5600,
0.0037697400,284,0x5600,
0.0037721600,285,0x0000,
0.0037736800,285,0x5600,
0.0037752200,285,0x5600,
0.0037767600,285,0x5600,
0.0037783000,285,0x5600,
0.0037798200,285,0x5600,
0.0037813600,285,0x5600,
0.0037829000,285,0x5600,
0.0037853000,286,0x0000,
0.0037868400,286,0x5600,
0.0037883800,286,0x5600,
0.0037899200,286,0x5600,
0.0037914400,286,0x5600,
0.0037929800,286,0x5600,
0.0037945200,286,0x5600,
0.0037960600,286,0x5600,
0.0037984600,287,0x0000,
0.0038000000,287,0x5600,
0.0038015200,287,0x5600,
0.0038030600,287,0x5600,
0.0038046000,287,0x5600,
0.0038061400,287,0x5600,
0.0038076800,287,0x5600,
0.0038092000,287,0x5600,
0.0038116000,288,0x0000,
0.0038131400,288,0x5600,
0.0038146800,288,0x5600,
0.0038162200,288,0x5600,
0.0038177600,288,0x5600,
0.0038192800,288,0x5600,
0.0038208200,288,0x5600,
0.0038223600,288,0x5600,
0.0038247600,289,0x0000,
0.0038263000,289,0x5600,
0.0038278400,289,0x5600,
0.0038293600,289,0x5600,
0.0038309000,289,0x5600,
0.0038324400,289,0x5600,
0.0038339800,289,0x5600,
0.0038355200,289,0x5600,
0.0038379200,290,0x0000,
0.0038394400,290,0x5600,
0.0038409800,290,0x5600,
0.0038425200,290,0x5600,
0.0038440600,290,0x5600,
0.0038456000,290,0x5600,
0.0038471200,290,0x5600,
0.0038486600,290,0x5600,
0.0038510600,291,0x0000,
0.0038526000,291,0x5600,
0.0038541400,291,0x5600,
0.0038556800,291,0x5600,
0.0038572000,291,0x5600,
0.0038587400,291,0x5600,
0.0038602800,291,0x5600,
0.0038618200,291,0x5600,
0.0038642200,292,0x0000,
0.0038657600,292,0x5600,
0.0038672800,292,0x5600,
0.0038688200,292,0x5600,
0.0038703600,292,0x5600,
0.0038719000,292,0x5600,
0.0038734400,292,0x5600,
0.0038749600,292,0x5600,
0.0038773600,293,0x0000,
0.0038789000,293,0x5600,
0.0038804400,293,0x5600,
0.0038819800,293,0x5600,
0.0038835200,293,0x5600,
0.0038850400,293,0x5600,
0.0038865800,293,0x5600,
0.0038881200,293,0x5600,
0.0038905200,294,0x0000,
0.0038920600,294,0x5600,
0.0038936000,294,0x5600,
0.0038951200,294,0x5600,
0.0038966600,294,0x5600,
0.0038982000,294,0x5600,
0.0038997400,294,0x5600,
0.0039012800,294,0x5600,
0.0039036800,295,0x0000,
0.0039052000,295,0x1840,
0.0039067400,295,0x1840,
0.0039082800,295,0x1840,
0.0039098200,295,0x1840,
0.0039113600,295,0x1840,
0.0039128800,295,0x1840,
0.0039144200,295,0x1840,
0.0039170200,296,0x0000,
0.0039185600,296,0x6100,
0.0039200800,296,0x6100,
0.0039216200,296,0x6100,
0.0039231600,296,0x6100,
0.0039247000,296,0x6100,
0.0039262400,296,0x6100,
0.0039277600,296,0x6100,
0.0039301600,297,0x0000,
0.0039317000,297,0x6100,
0.0039332400,297,0x6100,
0.0039347800,297,0x6100,
0.0039363200,297,0x6100,
0.0039378400,297,0x6100,
0.0039393800,297,0x6100,
0.0039409200,297,0x6100,
0.0039433200,298,0x0000,
0.0039448600,298,0x6100,
0.0039464000,298,0x6100,
0.0039479200,298,0x6100,
0.0039494600,298,0x6100,
0.0039510000,298,0x6100,
0.0039525400,298,0x6100,
0.0039540800,298,0x6100,
0.0039564800,299,0x0000,
0.0039580000,299,0x6100,
0.0039595400,299,0x6100,
0.0039610800,299,0x6100,
0.0039626200,299,0x6100,
0.0039641600,299,0x6100,
0.0039656800,299,0x6100,
0.0039672200,299,0x6100,
0.0039696200,300,0x0000,
0.0039711600,300,0x6100,
0.0039727000,300,0x6100,
0.0039742400,300,0x6100,
0.0039757600,300,0x6100,
0.0039773000,300,0x6100,
0.0039788400,300,0x6100,
0.0039803800,300,0x6100,
0.0039827800,301,0x0000,
0.0039843200,301,0x6100,
0.0039858400,301,0x6100,
0.0039873800,301,0x6100,
0.0039889200,301,0x6100,
0.0039904600,301,0x6100,
0.0039920000,301,0x6100,
0.0039935200,301,0x6100,
0.0039959200,302,0x0000,
0.0039974600,302,0x6100,
0.0039990000,302,0x6100,
0.0040005400,302,0x6100,
0.0040020800,302,0x6100,
0.0040036000,302,0x6100,
0.0040051400,302,0x6100,
0.0040066800,302,0x6100,
0.0040090800,303,0x0000,
0.0040106200,303,0x6100,
0.0040121600,303,0x6100,
0.0040136800,303,0x6100,
0.0040152200,303,0x6100,
0.0040167600,303,0x6100,
0.0040183000,303,0x6100,
0.0040198400,303,0x6100,
0.0040222400,304,0x0000,
0.0040237600,304,0x6100,
0.0040253000,304,0x6100,
0.0040268400,304,0x6100,
0.0040283800,304,0x6100,
0.0040299200,304,0x6100,
0.0040314600,304,0x6100,
0.0040329800,304,0x6100,
0.0040353800,305,0x0000,
0.0040369200,305,0x6100,
0.0040384600,305,0x6100,
0.0040400000,305,0x6100,
0.0040415200,305,0x6100,
0.0040430600,305,0x6100,
0.0040446000,305,0x6100,
0.0040461400,305,0x6100,
0.0040485400,306,0x0000,
0.0040500800,306,0x6100,
0.0040516200,306,0x6100,
0.0040531400,306,0x6100,
0.0040546800,306,0x6100,
0.0040562200,306,0x6100,
0.0040577600,306,0x6100,
0.0040593000,306,0x6100,
0.0040617000,307,0x0000,
0.0040632200,307,0x6100,
0.0040647600,307,0x6100,
0.0040663000,307,0x6100,
0.0040678400,307,0x6100,
0.0040693800,307,0x6100,
0.0040709000,307,0x6100,
0.0040724400,307,0x6100,
0.0040748400,308,0x0000,
0.0040763800,308,0x6100,
0.0040779200,308,0x6100,
0.0040794600,308,0x6100,
0.0040809800,308,0x6100,
0.0040825200,308,0x6100,
0.0040840600,308,0x6100,
0.0040856000,308,0x6100,
0.0040880000,309,0x0000,
0.0040895200,309,0x6100,
0.0040910600,309,0x6100,
0.0040926000,309,0x6100,
0.0040941400,309,0x6100,
0.0040956800,309,0x6100,
0.0040972200,309,0x6100,
0.0040987400,309,0x6100,
0.0041011400,310,0x0000,
0.0041026800,310,0x6100,
0.0041042200,310,0x6100,
0.0041057600,310,0x6100,
0.0041073000,310,0x6100,
0.0041088200,310,0x6100,
0.0041103600,310,0x6100,
0.0041119000,310,0x6100,
0.0041143000,311,0x0000,
0.0041158400,311,0x1B40,
0.0041173800,311,0x1B40,
0.0041189000,311,0x1B40,
0.0041204400,311,0x1B40,
0.0041219800,311,0x1B40,
0.0041235200,311,0x1B40,
0.0041250600,311,0x1B40,
0.0041276400,312,0x0000,
0.0041291800,312,0x6D00,
0.0041307200,312,0x6D00,
0.0041322600,312,0x6D00,
0.0041337800,312,0x6D00,
0.0041353200,312,0x6D00,
0.0041368600,312,0x6D00,
0.0041384000,312,0x6D00,
0.0041408000,313,0x0000,
0.0041423400,313,0x6D00,
0.0041438600,313,0x6D00,
0.0041454000,313,0x6D00,
0.0041469400,313,0x6D00,
0.0041484800,313,0x6D00,
0.0041500200,313,0x6D00,
0.0041515400,313,0x6D00,
0.0041539400,314,0x0000,
0.0041554800,314,0x6D00,
0.0041570200,314,0x6D00,
0.0041585600,314,0x6D00,
0.0041601000,314,0x6D00,
0.0041616200,314,0x6D00,
0.0041631600,314,0x6D00,
0.0041647000,314,0x6D00,
0.0041671000,315,0x0000,
0.0041686400,315,0x6D00,
0.0041701800,315,0x6D00,
0.0041717000,315,0x6D00,
0.0041732400,315,0x6D00,
0.0041747800,315,0x6D00,
0.0041763200,315,0x6D00,
0.0041778600,315,0x6D00,
0.0041802600,316,0x0000,
0.0041817800,316,0x6D00,
0.0041833200,316,0x6D00,
0.0041848600,316,0x6D00,
0.0041864000,316,0x6D00,
0.0041879400,316,0x6D00,
0.0041894600,316,0x6D00,
0.0041910000,316,0x6D00,
0.0041934000,317,0x0000,
0.0041949400,317,0x6D00,
0.0041964800,317,0x6D00,
0.0041980200,317,0x6D00,
0.0041995400,317,0x6D00,
0.0042010800,317,0x6D00,
0.0042026200,317,0x6D00,
0.0042041600,317,0x6D00,
0.0042065600,318,0x0000,
0.0042081000,318,0x6D00,
0.0042096200,318,0x6D00,
0.0042111600,318,0x6D00,
0.0042127000,318,0x6D00,
0.0042142400,318,0x6D00,
0.0042157800,318,0x6D00,
0.0042173000,318,0x6D00,
0.0042197000,319,0x0000,
0.0042212400,319,0x6D00,
0.0042227800,319,0x6D00,
0.0042243200,319,0x6D00,
0.0042258600,319,0x6D00,
0.0042273800,319,0x6D00,
0.0042289200,319,0x6D00,
0.0042304600,319,0x6D00,
0.0042328600,320,0x0000,
0.0042344000,320,0x6D00,
0.0042359400,320,0x6D00,
0.0042374600,320,0x6D00,
0.0042390000,320,0x6D00,
0.0042405400,320,0x6D00,
0.0042420800,320,0x6D00,
0.0042436200,320,0x6D00,
0.0042460200,321,0x0000,
0.0042475400,321,0x6D00,
0.0042490800,321,0x6D00,
0.0042506200,321,0x6D00,
0.0042521600,321,0x6D00,
0.0042537000,321,0x6D00,
0.0042552200,321,0x6D00,
0.0042567600,321,0x6D00,
0.0042591600,322,0x0000,
0.0042607000,322,0x6D00,
0.0042622400,322,0x6D00,
0.0042637800,322,0x6D00,
0.0042653000,322,0x6D00,
0.0042668400,322,0x6D00,
0.0042683800,322,0x6D00,
0.0042699200,322,0x6D00,
0.0042723200,323,0x0000,
0.0042738600,323,0x6D00,
0.0042753800,323,0x6D00,
0.0042769200,323,0x6D00,
0.0042784600,323,0x6D00,
0.0042800000,323,0x6D00,
0.0042815400,323,0x6D00,
0.0042830600,323,0x6D00,
0.0042854600,324,0x0000,
0.0042870000,324,0x6D00,
0.0042885400,324,0x6D00,
0.0042900800,324,0x6D00,
0.0042916200,324,0x6D00,
0.0042931600,324,0x6D00,
0.0042946800,324,0x6D00,
0.0042962200,324,0x6D00,
0.0042986200,325,0x0000,
0.0043001600,325,0x6D00,
0.0043017000,325,0x6D00,
0.0043032200,325,0x6D00,
0.0043047600,325,0x6D00,
0.0043063000,325,0x6D00,
0.0043078400,325,0x6D00,
0.0043093800,325,0x6D00,
0.0043117800,326,0x0000,
0.0043133000,326,0x6D00,
0.0043148400,326,0x6D00,
0.0043163800,326,0x6D00,
0.0043179200,326,0x6D00,
0.0043194600,326,0x6D00,
0.0043210000,326,0x6D00,
0.0043225200,326,0x6D00,
0.0043249200,327,0x0000,
0.0043264600,327,0x1D80,
0.0043280000,327,0x1D80,
0.0043295400,327,0x1D80,
0.0043310800,327,0x1D80,
0.0043326000,327,0x1D80,
0.0043341400,327,0x1D80,
0.0043356800,327,0x1D80,
0.0043382800,328,0x0000,
0.0043398000,328,0x7600,
0.0043413400,328,0x7600,
0.0043428800,328,0x7600,
0.0043444200,328,0x7600,
0.0043459600,328,0x7600,
0.0043474800,328,0x7600,
0.0043490200,328,0x7600,
0.0043514200,329,0x0000,
0.0043529600,329,0x7600,
0.0043545000,329,0x7600,
0.0043560400,329,0x7600,
0.0043575600,329,0x7600,
0.0043591000,329,0x7600,
0.0043606400,329,0x7600,
0.0043621800,329,0x7600,
0.0043645800,330,0x0000,
0.0043661200,330,0x7600,
0.0043676400,330,0x7600,
0.0043691800,330,0x7600,
0.0043707200,330,0x7600,
0.0043722600,330,0x7600,
0.0043738000,330,0x7600,
0.0043753200,330,0x7600,
0.0043777200,331,0x0000,
0.0043792600,331,0x7600,
0.0043808000,331,0x7600,
0.0043823400,331,0x7600,
0.0043838800,331,0x7600,
0.0043854000,331,0x7600,
0.0043869400,331,0x7600,
0.0043884800,331,0x7600,
0.0043908800,332,0x0000,
0.0043924200,332,0x7600,
0.0043939600,332,0x7600,
0.0043954800,332,0x7600,
0.0043970200,332,0x7600,
0.0043985600,332,0x7600,
0.0044001000,332,0x7600,
0.0044016400,332,0x7600,
0.0044040400,333,0x0000,
0.0044055600,333,0x7600,
0.0044071000,333,0x7600,
0.0044086400,333,0x7600,
0.0044101800,333,0x7600,
0.0044117200,333,0x7600,
0.0044132400,333,0x7600,
0.0044147800,333,0x7600,
0.0044171800,334,0x0000,
0.0044187200,334,0x7600,
0.0044202600,334,0x7600,
0.0044218000,334,0x7600,
0.0044233200,334,0x7600,
0.0044248600,334,0x7600,
0.0044264000,334,0x7600,
0.0044279400,334,0x7600,
0.0044303400,335,0x0000,
0.0044318800,335,0x7600,
0.0044334000,335,0x7600,
0.0044349400,335,0x7600,
0.0044364800,335,0x7600,
0.0044380200,335,0x7600,
0.0044395600,335,0x7600,
0.0044410800,335,0x7600,
0.0044434800,336,0x0000,
0.0044450200,336,0x7600,
0.0044465600,336,0x7600,
0.0044481000,336,0x7600,
0.0044496400,336,0x7600,
0.0044511600,336,0x7600,
0.0044527000,336,0x7600,
0.0044542400,336,0x7600,
0.0044566400,337,0x0000,
0.0044581800,337,0x7600,
0.0044597200,337,0x7600,
0.0044612400,337,0x7600,
0.0044627800,337,0x7600,
0.0044643200,337,0x7600,
0.0044658600,337,0x7600,
0.0044674000,337,0x7600,
0.0044698000,338,0x0000,
0.0044713200,338,0x7600,
0.0044728600,338,0x7600,
0.0044744000,338,0x7600,
0.0044759400,338,0x7600,
0.0044774800,338,0x7600,
0.0044790000,338,0x7600,
0.0044805400,338,0x7600,
0.0044829400,339,0x0000,
0.0044844800,339,0x7600,
0.0044860200,339,0x7600,
0.0044875600,339,0x7600,
0.0044890800,339,0x7600,
0.0044906200,339,0x7600,
0.0044921600,339,0x7600,
0.0044937000,339,0x7600,
0.0044961000,340,0x0000,
0.0044976400,340,0x7600,
0.0044991600,340,0x7600,
0.0045007000,340,0x7600,
0.0045022400,340,0x7600,
0.0045037800,340,0x7600,
0.0045053200,340,0x7600,
0.0045068400,340,0x7600,
0.0045092400,341,0x0000,
0.0045107800,341,0x7600,
0.0045123200,341,0x7600,
0.0045138600,341,0x7600,
0.0045154000,341,0x7600,
0.0045169200,341,0x7600,
0.0045184600,341,0x7600,
0.0045200000,341,0x7600,
0.0045224000,342,0x0000,
0.0045239400,342,0x7600,
0.0045254800,342,0x7600,
0.0045270000,342,0x7600,
0.0045285400,342,0x7600,
0.0045300800,342,0x7600,
0.0045316200,342,0x7600,
0.0045331600,342,0x7600,
0.0045355600,343,0x0000,
0.0045370800,343,0x2100,
0.0045386200,343,0x2100,
0.0045401600,343,0x2100,
0.0045417000,343,0x2100,
0.0045432400,343,0x2100,
0.0045447600,343,0x2100,
0.0045463000,343,0x2100,
0.0045489000,344,0x0000,
0.0045504400,344,0x8400,
0.0045519800,344,0x8400,
0.0045535000,344,0x8400,
0.0045550400,344,0x8400,
0.0045565800,344,0x8400,
0.0045581200,344,0x8400,
0.0045596600,344,0x8400,
0.0045620600,345,0x0000,
0.0045635800,345,0x8400,
0.0045651200,345,0x8400,
0.0045666600,345,0x8400,
0.0045682000,345,0x8400,
0.0045697200,345,0x8400,
0.0045712600,345,0x8400,
0.0045728000,345,0x8400,
0.0045752000,346,0x0000,
0.0045767400,346,0x8400,
0.0045782800,346,0x8400,
0.0045798200,346,0x8400,
0.0045813400,346,0x8400,
0.0045828800,346,0x8400,
0.0045844200,346,0x8400,
0.0045859600,346,0x8400,
0.0045883600,347,0x0000,
0.0045899000,347,0x8400,
0.0045914200,347,0x8400,
0.0045929600,347,0x8400,
0.0045945000,347,0x8400,
0.0045960400,347,0x8400,
0.0045975800,347,0x8400,
0.0045991000,347,0x8400,
0.0046015000,348,0x0000,
0.0046030400,348,0x8400,
0.0046045800,348,0x8400,
0.0046061200,348,0x8400,
0.0046076600,348,0x8400,
0.0046091800,348,0x8400,
0.0046107200,348,0x8400,
0.0046122600,348,0x8400,
0.0046146600,349,0x0000,
0.0046162000,349,0x8400,
0.0046177400,349,0x8400,
0.0046192600,349,0x8400,
0.0046208000,349,0x8400,
0.0046223400,349,0x8400,
0.0046238800,349,0x8400,
0.0046254200,349,0x8400,
0.0046278200,350,0x0000,
0.0046293400,350,0x8400,
0.0046308800,350,0x8400,
0.0046324200,350,0x8400,
0.0046339600,350,0x8400,
0.0046355000,350,0x8400,
0.0046370200,350,0x8400,
0.0046385600,350,0x8400,
0.0046409600,351,0x0000,
0.0046425000,351,0x8400,
0.0046440400,351,0x8400,
0.0046455800,351,0x8400,
0.0046471000,351,0x8400,
0.0046486400,351,0x8400,
0.0046501800,351,0x8400,
0.0046517200,351,0x8400,
0.0046541200,352,0x0000,
0.0046556600,352,0x8400,
0.0046571800,352,0x8400,
0.0046587200,352,0x8400,
0.0046602600,352,0x8400,
0.0046618000,352,0x8400,
0.0046633400,352,0x8400,
0.0046648600,352,0x8400,
0.0046672600,353,0x0000,
0.0046688000,353,0x8400,
0.0046703400,353,0x8400,
0.0046718800,353,0x8400,
0.0046734200,353,0x8400,
0.0046749400,353,0x8400,
0.0046764800,353,0x8400,
0.0046780200,353,0x8400,
0.0046804200,354,0x0000,
0.0046819600,354,0x8400,
0.0046835000,354,0x8400,
0.0046850200,354,0x8400,
0.0046865600,354,0x8400,
0.0046881000,354,0x8400,
0.0046896400,354,0x8400,
0.0046911800,354,0x8400,
0.0046935800,355,0x0000,
0.0046951000,355,0x8400,
0.0046966400,355,0x8400,
0.0046981800,355,0x8400,
0.0046997200,355,0x8400,
0.0047012600,355,0x8400,
0.0047027800,355,0x8400,
0.0047043200,355,0x8400,
0.0047067200,356,0x0000,
0.0047082600,356,0x8400,
0.0047098000,356,0x8400,
0.0047113400,356,0x8400,
0.0047128600,356,0x8400,
0.0047144000,356,0x8400,
0.0047159400,356,0x8400,
0.0047174800,356,0x8400,
0.0047198800,357,0x0000,
0.0047214200,357,0x8400,
0.0047229400,357,0x8400,
0.0047244800,357,0x8400,
0.0047260200,357,0x8400,
0.0047275600,357,0x8400,
0.0047291000,357,0x8400,
0.0047306200,357,0x8400,
0.0047330200,358,0x0000,
0.0047345600,358,0x8400,
0.0047361000,358,0x8400,
0.0047376400,358,0x8400,
0.0047391800,358,0x8400,
0.0047407000,358,0x8400,
0.0047422400,358,0x8400,
0.0047437800,358,0x8400,
0.0047461800,359,0x0000,
0.0047477200,359,0x24C0,
0.0047492600,359,0x24C0,
0.0047507800,359,0x24C0,
0.0047523200,359,0x24C0,
0.0047538600,359,0x24C0,
0.0047554000,359,0x24C0,
0.0047569400,359,0x24C0,
0.0047595200,360,0x0000,
0.0047610600,360,0x9300,
0.0047626000,360,0x9300,
0.0047641400,360,0x9300,
0.0047656600,360,0x9300,
0.0047672000,360,0x9300,
0.0047687400,360,0x9300,
0.0047702800,360,0x9300,
0.0047726800,361,0x0000,
0.0047742200,361,0x9300,
0.0047757400,361,0x9300,
0.0047772800,361,0x9300,
0.0047788200,361,0x9300,
0.0047803600,361,0x9300,
0.0047819000,361,0x9300,
0.0047834200,361,0x9300,
0.0047858200,362,0x0000,
0.0047873600,362,0x9300,
0.0047889000,362,0x9300,
0.0047904400,362,0x9300,
0.0047919800,362,0x9300,
0.0047935000,362,0x9300,
0.0047950400,362,0x9300,
0.0047965800,362,0x9300,
0.0047989800,363,0x0000,
0.0048005200,363,0x9300,
0.0048020600,363,0x9300,
0.0048036000,363,0x9300,
0.0048051200,363,0x9300,
0.0048066600,363,0x9300,
0.0048082000,363,0x9300,
0.0048097400,363,0x9300,
0.0048121400,364,0x0000,
0.0048136800,364,0x9300,
0.0048152000,364,0x9300,
0.0048167400,364,0x9300,
0.0048182800,364,0x9300,
0.0048198200,364,0x9300,
0.0048213600,364,0x9300,
0.0048228800,364,0x9300,
0.0048252800,365,0x0000,
0.0048268200,365,0x9300,
0.0048283600,365,0x9300,
0.0048299000,365,0x9300,
0.0048314200,365,0x9300,
0.0048329600,365,0x9300,
0.0048345000,365,0x9300,
0.0048360400,365,0x9300,
0.0048384400,366,0x0000,
0.0048399800,366,0x9300,
0.0048415200,366,0x9300,
0.0048430400,366,0x9300,
0.0048445800,366,0x9300,
0.0048461200,366,0x9300,
0.0048476600,366,0x9300,
0.0048492000,366,0x9300,
0.0048516000,367,0x0000,
0.0048531200,367,0x9300,
0.0048546600,367,0x9300,
0.0048562000,367,0x9300,
0.0048577400,367,0x9300,
0.0048592800,367,0x9300,
0.0048608000,367,0x9300,
0.0048623400,367,0x9300,
0.0048647400,368,0x0000,
0.0048662800,368,0x9300,
0.0048678200,368,0x9300,
0.0048693600,368,0x9300,
0.0048708800,368,0x9300,
0.0048724200,368,0x9300,
0.0048739600,368,0x9300,
0.0048755000,368,0x9300,
0.0048779000,369,0x0000,
0.0048794400,369,0x9300,
0.0048809600,369,0x9300,
0.0048825000,369,0x9300,
0.0048840400,369,0x9300,
0.0048855800,369,0x9300,
0.0048871200,369,0x9300,
0.0048886400,369,0x9300,
0.0048910400,370,0x0000,
0.0048925800,370,0x9300,
0.0048941200,370,0x9300,
0.0048956600,370,0x9300,
0.0048972000,370,0x9300,
0.0048987200,370,0x9300,
0.0049002600,370,0x9300,
0.0049018000,370,0x9300,
0.0049042000,371,0x0000,
0.0049057400,371,0x9300,
0.0049072800,371,0x9300,
0.0049088000,371,0x9300,
0.0049103400,371,0x9300,
0.0049118800,371,0x9300,
0.0049134200,371,0x9300,
0.0049149600,371,0x9300,
0.0049173600,372,0x0000,
0.0049188800,372,0x9300,
0.0049204200,372,0x9300,
0.0049219600,372,0x9300,
0.0049235000,372,0x9300,
0.0049250400,372,0x9300,
0.0049265600,372,0x9300,
0.0049281000,372,0x9300,
0.0049305000,373,0x0000,
0.0049320400,373,0x9300,
0.0049335800,373,0x9300,
0.0049351200,373,0x9300,
0.0049366400,373,0x9300,
0.0049381800,373,0x9300,
0.0049397200,373,0x9300,
0.0049412600,373,0x9300,
0.0049436600,374,0x0000,
0.0049452000,374,0x9300,
0.0049467200,374,0x9300,
0.0049482600,374,0x9300,
0.0049498000,374,0x9300,
0.0049513400,374,0x9300,
0.0049528800,374,0x9300,
0.0049544000,374,0x9300,
0.0049568000,375,0x0000,
0.0049583400,375,0x28C0,
0.0049598800,375,0x28C0,
0.0049614200,375,0x28C0,
0.0049629600,375,0x28C0,
0.0049644800,375,0x28C0,
0.0049660200,375,0x28C0,
0.0049675600,375,0x28C0,
0.0049701600,376,0x0000,
0.0049716800,376,0xA300,
0.0049732200,376,0xA300,
0.0049747600,376,0xA300,
0.0049763000,376,0xA300,
0.0049778400,376,0xA300,
0.0049793600,376,0xA300,
0.0049809000,376,0xA300,
0.0049833000,377,0x0000,
0.0049848400,377,0xA300,
0.0049863800,377,0xA300,
0.0049879200,377,0xA300,
0.0049894400,377,0xA300,
0.0049909800,377,0xA300,
0.0049925200,377,0xA300,
0.0049940600,377,0xA300,
0.0049964600,378,0x0000,
0.0049980000,378,0xA300,
0.0049995200,378,0xA300,
0.0050010600,378,0xA300,
0.0050026000,378,0xA300,
0.0050041400,378,0xA300,
0.0050056800,378,0xA300,
0.0050072000,378,0xA300,
0.0050096000,379,0x0000,
0.0050111400,379,0xA300,
0.0050126800,379,0xA300,
0.0050142200,379,0xA300,
0.0050157600,379,0xA300,
0.0050172800,379,0xA300,
0.0050188200,379,0xA300,
0.0050203600,379,0xA300,
0.0050227600,380,0x0000,
0.0050243000,380,0xA300,
0.0050258400,380,0xA300,
0.0050273600,380,0xA300,
0.0050289000,380,0xA300,
0.0050304400,380,0xA300,
0.0050319800,380,0xA300,
0.0050335200,380,0xA300,
0.0050359200,381,0x0000,
0.0050374400,381,0xA300,
0.0050389800,381,0xA300,
0.0050405200,381,0xA300,
0.0050420600,381,0xA300,
0.0050436000,381,0xA300,
0.0050451200,381,0xA300,
0.0050466600,381,0xA300,
0.0050490600,382,0x0000,
0.0050506000,382,0xA300,
0.0050521400,382,0xA300,
0.0050536800,382,0xA300,
0.0050552000,382,0xA300,
0.0050567400,382,0xA300,
0.0050582800,382,0xA300,
0.0050598200,382,0xA300,
0.0050622200,383,0x0000,
0.0050637600,383,0xA300,
0.0050652800,383,0xA300,
0.0050668200,383,0xA300,
0.0050683600,383,0xA300,
0.0050699000,383,0xA300,
0.0050714400,383,0xA300,
0.0050729600,383,0xA300,
0.0050753600,384,0x0000,
0.0050769000,384,0xA300,
0.0050784400,384,0xA300,
0.0050799800,384,0xA300,
0.0050815200,384,0xA300,
0.0050830600,384,0xA300,
0.0050845800,384,0xA300,
0.0050861200,384,0xA300,
0.0050885200,385,0x0000,
0.0050900600,385,0xA300,
0.0050916000,385,0xA300,
0.0050931200,385,0xA300,
0.0050946600,385,0xA300,
0.0050962000,385,0xA300,
0.0050977400,385,0xA300,
0.0050992800,385,0xA300,
0.0051016800,386,0x0000,
0.0051032000,386,0xA300,
0.0051047400,386,0xA300,
0.0051062800,386,0xA300,
0.0051078200,386,0xA300,
0.0051093600,386,0xA300,
0.0051109000,386,0xA300,
0.0051124200,386,0xA300,
0.0051148200,387,0x0000,
0.0051163600,387,0xA300,
0.0051179000,387,0xA300,
0.0051194400,387,0xA300,
0.0051209800,387,0xA300,
0.0051225000,387,0xA300,
0.0051240400,387,0xA300,
0.0051255800,387,0xA300,
0.0051279800,388,0x0000,
0.0051295200,388,0xA300,
0.0051310600,388,0xA300,
0.0051325800,388,0xA300,
0.0051341200,388,0xA300,
0.0051356600,388,0xA300,
0.0051372000,388,0xA300,
0.0051387200,388,0xA300,
0.0051411400,389,0x0000,
0.0051426600,389,0xA300,
0.0051442000,389,0xA300,
0.0051457400,389,0xA300,
0.0051472800,389,0xA300,
0.0051488200,389,0xA300,
0.0051503400,389,0xA300,
0.0051518800,389,0xA300,
0.0051542800,390,0x0000,
0.0051558200,390,0xA300,
0.0051573600,390,0xA300,
0.0051589000,390,0xA300,
0.0051604200,390,0xA300,
0.0051619600,390,0xA300,
0.0051635000,390,0xA300,
0.0051650400,390,0xA300,
0.0051674400,391,0x0000,
0.0051689800,391,0x2D20,
0.0051705000,391,0x2D20,
0.0051720400,391,0x2D20,
0.0051735800,391,0x2D20,
0.0051751200,391,0x2D20,
0.0051766600,391,0x2D20,
0.0051781800,391,0x2D20,
0.0051807800,392,0x0000,
0.0051823200,392,0xB480,
0.0051838600,392,0xB480,
0.0051853800,392,0xB480,
0.0051869200,392,0xB480,
0.0051884600,392,0xB480,
0.0051900000,392,0xB480,
0.0051915400,392,0xB480,
0.0051939400,393,0x0000,
0.0051954600,393,0xB480,
0.0051970000,393,0xB480,
0.0051985400,393,0xB480,
0.0052000800,393,0xB480,
0.0052016200,393,0xB480,
0.0052031400,393,0xB480,
0.0052046800,393,0xB480,
0.0052070800,394,0x0000,
0.0052086200,394,0xB480,
0.0052101600,394,0xB480,
0.0052117000,394,0xB480,
0.0052132200,394,0xB480,
0.0052147600,394,0xB480,
0.0052163000,394,0xB480,
0.0052178400,394,0xB480,
0.0052202400,395,0x0000,
0.0052217800,395,0xB480,
0.0052233000,395,0xB480,
0.0052248400,395,0xB480,
0.0052263800,395,0xB480,
0.0052279200,395,0xB480,
0.0052294600,395,0xB480,
0.0052309800,395,0xB480,
0.0052333800,396,0x0000,
0.0052349200,396,0xB480,
0.0052364600,396,0xB480,
0.0052380000,396,0xB480,
0.0052395400,396,0xB480,
0.0052410600,396,0xB480,
0.0052426000,396,0xB480,
0.0052441400,396,0xB480,
0.0052465400,397,0x0000,
0.0052480800,397,0xB480,
0.0052496200,397,0xB480,
0.0052511400,397,0xB480,
0.0052526800,397,0xB480,
0.0052542200,397,0xB480,
0.0052557600,397,0xB480,
0.0052573000,397,0xB480,
0.0052597000,398,0x0000,
0.0052612200,398,0xB480,
0.0052627600,398,0xB480,
0.0052643000,398,0xB480,
0.0052658400,398,0xB480,
0.0052673800,398,0xB480,
0.0052689000,398,0xB480,
0.0052704400,398,0xB480,
0.0052728400,399,0x0000,
0.0052743800,399,0xB480,
0.0052759200,399,0xB480,
0.0052774600,399,0xB480,
0.0052789800,399,0xB480,
0.0052805200,399,0xB480,
0.0052820600,399,0xB480,
0.0052836000,399,0xB480,
0.0052860000,400,0x0000,
0.0052875400,400,0xB480,
0.0052890600,400,0xB480,
0.0052906000,400,0xB480,
0.0052921400,400,0xB480,
0.0052936800,400,0xB480,
0.0052952200,400,0xB480,
0.0052967400,400,0xB480,
0.0052991400,401,0x0000,
0.0053006800,401,0xB480,
0.0053022200,401,0xB480,
0.0053037600,401,0xB480,
0.0053053000,401,0xB480,
0.0053068200,401,0xB480,
0.0053083600,401,0xB480,
0.0053099000,401,0xB480,
0.0053123000,402,0x0000,
0.0053138400,402,0xB480,
0.0053153800,402,0xB480,
0.0053169000,402,0xB480,
0.0053184400,402,0xB480,
0.0053199800,402,0xB480,
0.0053215200,402,0xB480,
0.0053230600,402,0xB480,
0.0053254600,403,0x0000,
0.0053269800,403,0xB480,
0.0053285200,403,0xB480,
0.0053300600,403,0xB480,
0.0053316000,403,0xB480,
0.0053331400,403,0xB480,
0.0053346600,403,0xB480,
0.0053362000,403,0xB480,
0.0053386000,404,0x0000,
0.0053401400,404,0xB480,
0.0053416800,404,0xB480,
0.0053432200,404,0xB480,
0.0053447400,404,0xB480,
0.0053462800,404,0xB480,
0.0053478200,404,0xB480,
0.0053493600,404,0xB480,
0.0053517600,405,0x0000,
0.0053533000,405,0xB480,
0.0053548200,405,0xB480,
0.0053563600,405,0xB480,
0.0053579000,405,0xB480,
0.0053594400,405,0xB480,
0.0053609800,405,0xB480,
0.0053625200,405,0xB480,
0.0053649000,406,0x0000,
0.0053664400,406,0xB480,
0.0053679800,406,0xB480,
0.0053695200,406,0xB480,
0.0053710600,406,0xB480,
0.0053726000,406,0xB480,
0.0053741200,406,0xB480,
0.0053756600,406,0xB480,
0.0053780600,407,0x0000,
0.0053796000,407,0x3040,
0.0053811400,407,0x3040,
0.0053826800,407,0x3040,
0.0053842000,407,0x3040,
0.0053857400,407,0x3040,
0.0053872800,407,0x3040,
0.0053888200,407,0x3040,
0.0053914000,408,0x0000,
0.0053929400,408,0xC100,
0.0053944800,408,0xC100,
0.0053960200,408,0xC100,
0.0053975600,408,0xC100,
0.0053990800,408,0xC100,
0.0054006200,408,0xC100,
0.0054021600,408,0xC100,
0.0054045600,409,0x0000,
0.0054061000,409,0xC100,
0.0054076400,409,0xC100,
0.0054091600,409,0xC100,
0.0054107000,409,0xC100,
0.0054122400,409,0xC100,
0.0054137800,409,0xC100,
0.0054153200,409,0xC100,
0.0054177200,410,0x0000,
0.0054192400,410,0xC100,
0.0054207800,410,0xC100,
0.0054223200,410,0xC100,
0.0054238600,410,0xC100,
0.0054254000,410,0xC100,
0.0054269200,410,0xC100,
0.0054284600,410,0xC100,
0.0054308600,411,0x0000,
0.0054324000,411,0xC100,
0.0054339400,411,0xC100,
0.0054354800,411,0xC100,
0.0054370000,411,0xC100,
0.0054385400,411,0xC100,
0.0054400800,411,0xC100,
0.0054416200,411,0xC100,
0.0054440200,412,0x0000,
0.0054455600,412,0xC100,
0.0054470800,412,0xC100,
0.0054486200,412,0xC100,
0.0054501600,412,0xC100,
0.0054517000,412,0xC100,
0.0054532400,412,0xC100,
0.0054547600,412,0xC100,
0.0054571600,413,0x0000,
0.0054587000,413,0xC100,
0.0054602400,413,0xC100,
0.0054617800,413,0xC100,
0.0054633200,413,0xC100,
0.0054648400,413,0xC100,
0.0054663800,413,0xC100,
0.0054679200,413,0xC100,
0.0054703200,414,0x0000,
0.0054718600,414,0xC100,
0.0054734000,414,0xC100,
0.0054749200,414,0xC100,
0.0054764600,414,0xC100,
0.0054780000,414,0xC100,
0.0054795400,414,0xC100,
0.0054810800,414,0xC100,
0.0054834800,415,0x0000,
0.0054850000,415,0xC100,
0.0054865400,415,0xC100,
0.0054880800,415,0xC100,
0.0054896200,415,0xC100,
0.0054911600,415,0xC100,
0.0054926800,415,0xC100,
0.0054942200,415,0xC100,
0.0054966200,416,0x0000,
0.0054981600,416,0xC100,
0.0054997000,416,0xC100,
0.0055012400,416,0xC100,
0.0055027600,416,0xC100,
0.0055043000,416,0xC100,
0.0055058400,416,0xC100,
0.0055073800,416,0xC100,
0.0055097800,417,0x0000,
0.0055113200,417,0xC100,
0.0055128400,417,0xC100,
0.0055143800,417,0xC100,
0.0055159200,417,0xC100,
0.0055174600,417,0xC100,
0.0055190000,417,0xC100,
0.0055205200,417,0xC100,
0.0055229200,418,0x0000,
0.0055244600,418,0xC100,
0.0055260000,418,0xC100,
0.0055275400,418,0xC100,
0.0055290800,418,0xC100,
0.0055306000,418,0xC100,
0.0055321400,418,0xC100,
0.0055336800,418,0xC100,
0.0055360800,419,0x0000,
0.0055376200,419,0xC100,
0.0055391600,419,0xC100,
0.0055406800,419,0xC100,
0.0055422200,419,0xC100,
0.0055437600,419,0xC100,
0.0055453000,419,0xC100,
0.0055468400,419,0xC100,
0.0055492400,420,0x0000,
0.0055507600,420,0xC100,
0.0055523000,420,0xC100,
0.0055538400,420,0xC100,
0.0055553800,420,0xC100,
0.0055569200,420,0xC100,
0.0055584400,420,0xC100,
0.0055599800,420,0xC100,
0.0055623800,421,0x0000,
0.0055639200,421,0xC100,
0.0055654600,421,0xC100,
0.0055670000,421,0xC100,
0.0055685200,421,0xC100,
0.0055700600,421,0xC100,
0.0055716000,421,0xC100,
0.0055731400,421,0xC100,
0.0055755400,422,0x0000,
0.0055770800,422,0xC100,
0.0055786000,422,0xC100,
0.0055801400,422,0xC100,
0.0055816800,422,0xC100,
0.0055832200,422,0xC100,
0.0055847600,422,0xC100,
0.0055862800,422,0xC100,
0.0055886800,423,0x0000,
0.0055902200,423,0x3520,
0.0055917600,423,0x3520,
0.0055933000,423,0x3520,
0.0055948400,423,0x3520,
0.0055963600,423,0x3520,
0.0055979000,423,0x3520,
0.0055994400,423,0x3520,
0.0056020400,424,0x0000,
0.0056035600,424,0xD480,
0.0056051000,424,0xD480,
0.0056066400,424,0xD480,
0.0056081800,424,0xD480,
0.0056097200,424,0xD480,
0.0056112600,424,0xD480,
0.0056127800,424,0xD480,
0.0056151800,425,0x0000,
0.0056167200,425,0xD480,
0.0056182600,425,0xD480,
0.0056198000,425,0xD480,
0.0056213200,425,0xD480,
0.0056228600,425,0xD480,
0.0056244000,425,0xD480,
0.0056259400,425,0xD480,
0.0056283400,426,0x0000,
0.0056298800,426,0xD480,
0.0056314200,426,0xD480,
0.0056329400,426,0xD480,
0.0056344800,426,0xD480,
0.0056360200,426,0xD480,
0.0056375600,426,0xD480,
0.0056391000,426,0xD480,
0.0056415000,427,0x0000,
0.0056430200,427,0xD480,
0.0056445600,427,0xD480,
0.0056461000,427,0xD480,
0.0056476400,427,0xD480,
0.0056491800,427,0xD480,
0.0056507000,427,0xD480,
0.0056522400,427,0xD480,
0.0056546400,428,0x0000,
0.0056561800,428,0xD480,
0.0056577200,428,0xD480,
0.0056592600,428,0xD480,
0.0056607800,428,0xD480,
0.0056623200,428,0xD480,
0.0056638600,428,0xD480,
0.0056654000,428,0xD480,
0.0056678000,429,0x0000,
0.0056693400,429,0xD480,
0.0056708600,429,0xD480,
0.0056724000,429,0xD480,
0.0056739400,429,0xD480,
0.0056754800,429,0xD480,
0.0056770200,429,0xD480,
0.0056785400,429,0xD480,
0.0056809400,430,0x0000,
0.0056824800,430,0xD480,
0.0056840200,430,0xD480,
0.0056855600,430,0xD480,
0.0056871000,430,0xD480,
0.0056886200,430,0xD480,
0.0056901600,430,0xD480,
0.0056917000,430,0xD480,
0.0056941000,431,0x0000,
0.0056956400,431,0xD480,
0.0056971800,431,0xD480,
0.0056987000,431,0xD480,
0.0057002400,431,0xD480,
0.0057017800,431,0xD480,
0.0057033200,431,0xD480,
0.0057048600,431,0xD480,
0.0057072600,432,0x0000,
0.0057087800,432,0xD480,
0.0057103200,432,0xD480,
0.0057118600,432,0xD480,
0.0057134000,432,0xD480,
0.0057149400,432,0xD480,
0.0057164600,432,0xD480,
0.0057180000,432,0xD480,
0.0057204000,433,0x0000,
0.0057219400,433,0xD480,
0.0057234800,433,0xD480,
0.0057250200,433,0xD480,
0.0057265400,433,0xD480,
0.0057280800,433,0xD480,
0.0057296200,433,0xD480,
0.0057311600,433,0xD480,
0.0057335600,434,0x0000,
0.0057351000,434,0xD480,
0.0057366200,434,0xD480,
0.0057381600,434,0xD480,
0.0057397000,434,0xD480,
0.0057412400,434,0xD480,
0.0057427800,434,0xD480,
0.0057443000,434,0xD480,
0.0057467000,435,0x0000,
0.0057482400,435,0xD480,
0.0057497800,435,0xD480,
0.0057513200,435,0xD480,
0.0057528600,435,0xD480,
0.0057543800,435,0xD480,
0.0057559200,435,0xD480,
0.0057574600,435,0xD480,
0.0057598600,436,0x0000,
0.0057614000,436,0xD480,
0.0057629400,436,0xD480,
0.0057644600,436,0xD480,
0.0057660000,436,0xD480,
0.0057675400,436,0xD480,
0.0057690800,436,0xD480,
0.0057706200,436,0xD480,
0.0057730200,437,0x0000,
0.0057745400,437,0xD480,
0.0057760800,437,0xD480,
0.0057776200,437,0xD480,
0.0057791600,437,0xD480,
0.0057807000,437,0xD480,
0.0057822200,437,0xD480,
0.0057837600,437,0xD480,
0.0057861600,438,0x0000,
0.0057877000,438,0xD480,
0.0057892400,438,0xD480,
0.0057907800,438,0xD480,
0.0057923000,438,0xD480,
0.0057938400,438,0xD480,
0.0057953800,438,0xD480,
0.0057969200,438,0xD480,
0.0057993200,439,0x0000,
0.0058008600,439,0x3A40,
0.0058023800,439,0x3A40,
0.0058039200,439,0x3A40,
0.0058054600,439,0x3A40,
0.0058070000,439,0x3A40,
0.0058085400,439,0x3A40,
0.0058100600,439,0x3A40,
0.0058126600,440,0x0000,
0.0058142000,440,0xE900,
0.0058157400,440,0xE900,
0.0058172600,440,0xE900,
0.0058188000,440,0xE900,
0.0058203400,440,0xE900,
0.0058218800,440,0xE900,
0.0058234200,440,0xE900,
0.0058258200,441,0x0000,
0.0058273400,441,0xE900,
0.0058288800,441,0xE900,
0.0058304200,441,0xE900,
0.0058319600,441,0xE900,
0.0058335000,441,0xE900,
0.0058350200,441,0xE900,
0.0058365600,441,0xE900,
0.0058389600,442,0x0000,
0.0058405000,442,0xE900,
0.0058420400,442,0xE900,
0.0058435800,442,0xE900,
0.0058451000,442,0xE900,
0.0058466400,442,0xE900,
0.0058481800,442,0xE900,
0.0058497200,442,0xE900,
0.0058521200,443,0x0000,
0.0058536600,443,0xE900,
0.0058551800,443,0xE900,
0.0058567200,443,0xE900,
0.0058582600,443,0xE900,
0.0058598000,443,0xE900,
0.0058613400,443,0xE900,
0.0058628600,443,0xE900,
0.0058652600,444,0x0000,
0.0058668000,444,0xE900,
0.0058683400,444,0xE900,
0.0058698800,444,0xE900,
0.0058714200,444,0xE900,
0.0058729600,444,0xE900,
0.0058744800,444,0xE900,
0.0058760200,444,0xE900,
0.0058784200,445,0x0000,
0.0058799600,445,0xE900,
0.0058815000,445,0xE900,
0.0058830200,445,0xE900,
0.0058845600,445,0xE900,
0.0058861000,445,0xE900,
0.0058876400,445,0xE900,
0.0058891800,445,0xE900,
0.0058915800,446,0x0000,
0.0058931200,446,0xE900,
0.0058946400,446,0xE900,
0.0058961800,446,0xE900,
0.0058977200,446,0xE900,
0.0058992600,446,0xE900,
0.0059008000,446,0xE900,
0.0059023200,446,0xE900,
0.0059047200,447,0x0000,
0.0059062600,447,0xE900,
0.0059078000,447,0xE900,
0.0059093400,447,0xE900,
0.0059108800,447,0xE900,
0.0059124000,447,0xE900,
0.0059139400,447,0xE900,
0.0059154800,447,0xE900,
0.0059178800,448,0x0000,
0.0059194200,448,0xE900,
0.0059209600,448,0xE900,
0.0059224800,448,0xE900,
0.0059240200,448,0xE900,
0.0059255600,448,0xE900,
0.0059271000,448,0xE900,
0.0059286400,448,0xE900,
0.0059310400,449,0x0000,
0.0059325600,449,0xE900,
0.0059341000,449,0xE900,
0.0059356400,449,0xE900,
0.0059371800,449,0xE900,
0.0059387200,449,0xE900,
0.0059402400,449,0xE900,
0.0059417800,449,0xE900,
0.0059441800,450,0x0000,
0.0059457200,450,0xE900,
0.0059472600,450,0xE900,
0.0059488000,450,0xE900,
0.0059503200,450,0xE900,
0.0059518600,450,0xE900,
0.0059534000,450,0xE900,
0.0059549400,450,0xE900,
0.0059573400,451,0x0000,
0.0059588800,451,0xE900,
0.0059604000,451,0xE900,
0.0059619400,451,0xE900,
0.0059634800,451,0xE900,
0.0059650200,451,0xE900,
0.0059665600,451,0xE900,
0.0059680800,451,0xE900,
0.0059704800,452,0x0000,
0.0059720200,452,0xE900,
0.0059735600,452,0xE900,
0.0059751000,452,0xE900,
0.0059766400,452,0xE900,
0.0059781600,452,0xE900,
0.0059797000,452,0xE900,
0.0059812400,452,0xE900,
0.0059836400,453,0x0000,
0.0059851800,453,0xE900,
0.0059867200,453,0xE900,
0.0059882400,453,0xE900,
0.0059897800,453,0xE900,
0.0059913200,453,0xE900,
0.0059928600,453,0xE900,
0.0059944000,453,0xE900,
0.0059968000,454,0x0000,
0.0059983200,454,0xE900,
0.0059998600,454,0xE900,
0.0060014000,454,0xE900,
0.0060029400,454,0xE900,
0.0060044800,454,0xE900,
0.0060060000,454,0xE900,
0.0060075400,454,0xE900,
0.0060099400,455,0x0000,
0.0060114800,455,0x3FE0,
0.0060130200,455,0x3FE0,
0.0060145600,455,0x3FE0,
0.0060160800,455,0x3FE0,
0.0060176200,455,0x3FE0,
0.0060191600,455,0x3FE0,
0.0060207000,455,0x3FE0,
0.0060232800,456,0x0000,
0.0060248200,456,0xFF80,
0.0060263600,456,0xFF80,
0.0060279000,456,0xFF80,
0.0060294400,456,0xFF80,
0.0060309600,456,0xFF80,
0.0060325000,456,0xFF80,
0.0060340400,456,0xFF80,
0.0060364400,457,0x0000,
0.0060379800,457,0xFF80,
0.0060395200,457,0xFF80,
0.0060410400,457,0xFF80,
0.0060425800,457,0xFF80,
0.0060441200,457,0xFF80,
0.0060456600,457,0xFF80,
0.0060472000,457,0xFF80,
0.0060496000,458,0x0000,
0.0060511200,458,0xFF80,
0.0060526600,458,0xFF80,
0.0060542000,458,0xFF80,
0.0060557400,458,0xFF80,
0.0060572800,458,0xFF80,
0.0060588000,458,0xFF80,
0.0060603400,458,0xFF80,
0.0060627400,459,0x0000,
0.0060642800,459,0xFF80,
0.0060658200,459,0xFF80,
0.0060673600,459,0xFF80,
0.0060688800,459,0xFF80,
0.0060704200,459,0xFF80,
0.0060719600,459,0xFF80,
0.0060735000,459,0xFF80,
0.0060759000,460,0x0000,
0.0060774400,460,0xFF80,
0.0060789600,460,0xFF80,
0.0060805000,460,0xFF80,
0.0060820400,460,0xFF80,
0.0060835800,460,0xFF80,
0.0060851200,460,0xFF80,
0.0060866400,460,0xFF80,
0.0060890400,461,0x0000,
0.0060905800,461,0xFF80,
0.0060921200,461,0xFF80,
0.0060936600,461,0xFF80,
0.0060952000,461,0xFF80,
0.0060967200,461,0xFF80,
0.0060982600,461,0xFF80,
0.0060998000,461,0xFF80,
0.0061022000,462,0x0000,
0.0061037400,462,0xFF80,
0.0061052800,462,0xFF80,
0.0061068000,462,0xFF80,
0.0061083400,462,0xFF80,
0.0061098800,462,0xFF80,
0.0061114200,462,0xFF80,
0.0061129600,462,0xFF80,
0.0061153600,463,0x0000,
0.0061168800,463,0xFF80,
0.0061184200,463,0xFF80,
0.0061199600,463,0xFF80,
0.0061215000,463,0xFF80,
0.0061230400,463,0xFF80,
0.0061245600,463,0xFF80,
0.0061261000,463,0xFF80,
0.0061285000,464,0x0000,
0.0061300400,464,0xFF80,
0.0061315800,464,0xFF80,
0.0061331200,464,0xFF80,
0.0061346600,464,0xFF80,
0.0061361800,464,0xFF80,
0.0061377200,464,0xFF80,
0.0061392600,464,0xFF80,
0.0061416600,465,0x0000,
0.0061432000,465,0xFF80,
0.0061447200,465,0xFF80,
0.0061462600,465,0xFF80,
0.0061478000,465,0xFF80,
0.0061493400,465,0xFF80,
0.0061508800,465,0xFF80,
0.0061524200,465,0xFF80,
0.0061548000,466,0x0000,
0.0061563400,466,0xFF80,
0.0061578800,466,0xFF80,
0.0061594200,466,0xFF80,
0.0061609600,466,0xFF80,
0.0061625000,466,0xFF80,
0.0061640200,466,0xFF80,
0.0061655600,466,0xFF80,
0.0061679600,467,0x0000,
0.0061695000,467,0xFF80,
0.0061710400,467,0xFF80,
0.0061725800,467,0xFF80,
0.0061741000,467,0xFF80,
0.0061756400,467,0xFF80,
0.0061771800,467,0xFF80,
0.0061787200,467,0xFF80,
0.0061811200,468,0x0000,
0.0061826600,468,0xFF80,
0.0061841800,468,0xFF80,
0.0061857200,468,0xFF80,
0.0061872600,468,0xFF80,
0.0061888000,468,0xFF80,
0.0061903400,468,0xFF80,
0.0061918600,468,0xFF80,
0.0061942600,469,0x0000,
0.0061958000,469,0xFF80,
0.0061973400,469,0xFF80,
0.0061988800,469,0xFF80,
0.0062004200,469,0xFF80,
0.0062019400,469,0xFF80,
0.0062034800,469,0xFF80,
0.0062050200,469,0xFF80,
0.0062074200,470,0x0000,
0.0062089600,470,0xFF80,
0.0062105000,470,0xFF80,
0.0062120200,470,0xFF80,
0.0062135600,470,0xFF80,
0.0062151000,470,0xFF80,
0.0062166400,470,0xFF80,
0.0062181800,470,0xFF80,
0.0062205800,471,0x0000,
0.0062221000,471,0x45C0,
0.0062236400,471,0x45C0,
0.0062251800,471,0x45C0,
0.0062267200,471,0x45C0,
0.0062282600,471,0x45C0,
0.0062297800,471,0x45C0,
0.0062313200,471,0x45C0,
0.0062339200,472,0x0001,
0.0062354600,472,0x1701,
0.0062369800,472,0x1701,
0.0062385200,472,0x1701,
0.0062400600,472,0x1701,
0.0062416000,472,0x1701,
0.0062431400,472,0x1701,
0.0062446600,472,0x1701,
0.0062470600,473,0x0001,
0.0062486000,473,0x1701,
0.0062501400,473,0x1701,
0.0062516800,473,0x1701,
0.0062532200,473,0x1701,
0.0062547400,473,0x1701,
0.0062562800,473,0x1701,
0.0062578200,473,0x1701,
0.0062602200,474,0x0001,
0.0062617600,474,0x1701,
0.0062633000,474,0x1701,
0.0062648200,474,0x1701,
0.0062663600,474,0x1701,
0.0062679000,474,0x1701,
0.0062694400,474,0x1701,
0.0062709800,474,0x1701,
0.0062733800,475,0x0001,
0.0062749000,475,0x1701,
0.0062764400,475,0x1701,
0.0062779800,475,0x1701,
0.0062795200,475,0x1701,
0.0062810600,475,0x1701,
0.0062825800,475,0x1701,
0.0062841200,475,0x1701,
0.0062865200,476,0x0001,
0.0062880600,476,0x1701,
0.0062896000,476,0x1701,
0.0062911400,476,0x1701,
0.0062926600,476,0x1701,
0.0062942000,476,0x1701,
0.0062957400,476,0x1701,
0.0062972800,476,0x1701,
0.0062996800,477,0x0001,
0.0063012200,477,0x1701,
0.0063027400,477,0x1701,
0.0063042800,477,0x1701,
0.0063058200,477,0x1701,
0.0063073600,477,0x1701,
0.0063089000,477,0x1701,
0.0063104200,477,0x1701,
0.0063128200,478,0x0001,
0.0063143600,478,0x1701,
0.0063159000,478,0x1701,
0.0063174400,478,0x1701,
0.0063189800,478,0x1701,
0.0063205000,478,0x1701,
0.0063220400,478,0x1701,
0.0063235800,478,0x1701,
0.0063259800,479,0x0001,
0.0063275200,479,0x1701,
0.0063290600,479,0x1701,
0.0063305800,479,0x1701,
0.0063321200,479,0x1701,
0.0063336600,479,0x1701,
0.0063352000,479,0x1701,
0.0063367400,479,0x1701,
0.0063391400,480,0x0001,
0.0063406600,480,0x1701,
0.0063422000,480,0x1701,
0.0063437400,480,0x1701,
0.0063452800,480,0x1701,
0.0063468200,480,0x1701,
0.0063483400,480,0x1701,
0.0063498800,480,0x1701,
0.0063522800,481,0x0001,
0.0063538200,481,0x1701,
0.0063553600,481,0x1701,
0.0063569000,481,0x1701,
0.0063584200,481,0x1701,
0.0063599600,481,0x1701,
0.0063615000,481,0x1701,
0.0063630400,481,0x1701,
0.0063654400,482,0x0001,
0.0063669800,482,0x1701,
0.0063685000,482,0x1701,
0.0063700400,482,0x1701,
0.0063715800,482,0x1701,
0.0063731200,482,0x1701,
0.0063746600,482,0x1701,
0.0063761800,482,0x1701,
0.0063785800,483,0x0001,
0.0063801200,483,0x1701,
0.0063816600,483,0x1701,
0.0063832000,483,0x1701,
0.0063847400,483,0x1701,
0.0063862600,483,0x1701,
0.0063878000,483,0x1701,
0.0063893400,483,0x1701,
0.0063917400,484,0x0001,
0.0063932800,484,0x1701,
0.0063948200,484,0x1701,
0.0063963400,484,0x1701,
0.0063978800,484,0x1701,
0.0063994200,484,0x1701,
0.0064009600,484,0x1701,
0.0064025000,484,0x1701,
0.0064049000,485,0x0001,
0.0064064200,485,0x1701,
0.0064079600,485,0x1701,
0.0064095000,485,0x1701,
0.0064110400,485,0x1701,
0.0064125800,485,0x1701,
0.0064141000,485,0x1701,
0.0064156400,485,0x1701,
0.0064180400,486,0x0001,
0.0064195800,486,0x1701,
0.0064211200,486,0x1701,
0.0064226600,486,0x1701,
0.0064242000,486,0x1701,
0.0064257200,486,0x1701,
0.0064272600,486,0x1701,
0.0064288000,486,0x1701,
0.0064312000,487,0x0000,
0.0064327400,487,0x4BE0,
0.0064342800,487,0x4BE0,
0.0064358000,487,0x4BE0,
0.0064373400,487,0x4BE0,
0.0064388800,487,0x4BE0,
0.0064404200,487,0x4BE0,
0.0064419600,487,0x4BE0,
0.0064445400,488,0x0001,
0.0064460800,488,0x2F81,
0.0064476200,488,0x2F81,
0.0064491600,488,0x2F81,
0.0064506800,488,0x2F81,
0.0064522200,488,0x2F81,
0.0064537600,488,0x2F81,
0.0064553000,488,0x2F81,
0.0064577000,489,0x0001,
0.0064592200,489,0x2F81,
0.0064607600,489,0x2F81,
0.0064623000,489,0x2F81,
0.0064638400,489,0x2F81,
0.0064653800,489,0x2F81,
0.0064669200,489,0x2F81,
0.0064684400,489,0x2F81,
0.0064708400,490,0x0001,
0.0064723800,490,0x2F81,
0.0064739200,490,0x2F81,
0.0064754600,490,0x2F81,
0.0064770000,490,0x2F81,
0.0064785200,490,0x2F81,
0.0064800600,490,0x2F81,
0.0064816000,490,0x2F81,
0.0064840000,491,0x0001,
0.0064855400,491,0x2F81,
0.0064870800,491,0x2F81,
0.0064886000,491,0x2F81,
0.0064901400,491,0x2F81,
0.0064916800,491,0x2F81,
0.0064932200,491,0x2F81,
0.0064947600,491,0x2F81,
0.0064971600,492,0x0001,
0.0064986800,492,0x2F81,
0.0065002200,492,0x2F81,
0.0065017600,492,0x2F81,
0.0065033000,492,0x2F81,
0.0065048400,492,0x2F81,
0.0065063600,492,0x2F81,
0.0065079000,492,0x2F81,
0.0065103000,493,0x0001,
0.0065118400,493,0x2F81,
0.0065133800,493,0x2F81,
0.0065149200,493,0x2F81,
0.0065164400,493,0x2F81,
0.0065179800,493,0x2F81,
0.0065195200,493,0x2F81,
0.0065210600,493,0x2F81,
0.0065234600,494,0x0001,
0.0065250000,494,0x2F81,
0.0065265200,494,0x2F81,
0.0065280600,494,0x2F81,
0.0065296000,494,0x2F81,
0.0065311400,494,0x2F81,
0.0065326800,494,0x2F81,
0.0065342000,494,0x2F81,
0.0065366000,495,0x0001,
0.0065381400,495,0x2F81,
0.0065396800,495,0x2F81,
0.0065412200,495,0x2F81,
0.0065427600,495,0x2F81,
0.0065442800,495,0x2F81,
0.0065458200,495,0x2F81,
0.0065473600,495,0x2F81,
0.0065497600,496,0x0001,
0.0065513000,496,0x2F81,
0.0065528400,496,0x2F81,
0.0065543600,496,0x2F81,
0.0065559000,496,0x2F81,
0.0065574400,496,0x2F81,
0.0065589800,496,0x2F81,
0.0065605200,496,0x2F81,
0.0065629200,497,0x0001,
0.0065644400,497,0x2F81,
0.0065659800,497,0x2F81,
0.0065675200,497,0x2F81,
0.0065690600,497,0x2F81,
0.0065706000,497,0x2F81,
0.0065721200,497,0x2F81,
0.0065736600,497,0x2F81,
0.0065760600,498,0x0001,
0.0065776000,498,0x2F81,
0.0065791400,498,0x2F81,
0.0065806800,498,0x2F81,
0.0065822000,498,0x2F81,
0.0065837400,498,0x2F81,
0.0065852800,498,0x2F81,
0.0065868200,498,0x2F81,
0.0065892200,499,0x0001,
0.0065907600,499,0x2F81,
0.0065922800,499,0x2F81,
0.0065938200,499,0x2F81,
0.0065953600,499,0x2F81,
0.0065969000,499,0x2F81,
0.0065984400,499,0x2F81,
0.0065999600,499,0x2F81,
0.0066023600,500,0x0001,
0.0066039000,500,0x2F81,
0.0066054400,500,0x2F81,
0.0066069800,500,0x2F81,
0.0066085200,500,0x2F81,
0.0066100400,500,0x2F81,
0.0066115800,500,0x2F81,
0.0066131200,500,0x2F81,
0.0066155200,501,0x0001,
0.0066170600,501,0x2F81,
0.0066186000,501,0x2F81,
0.0066201200,501,0x2F81,
0.0066216600,501,0x2F81,
0.0066232000,501,0x2F81,
0.0066247400,501,0x2F81,
0.0066262800,501,0x2F81,
0.0066286800,502,0x0001,
0.0066302000,502,0x2F81,
0.0066317400,502,0x2F81,
0.0066332800,502,0x2F81,
0.0066348200,502,0x2F81,
0.0066363600,502,0x2F81,
0.0066378800,502,0x2F81,
0.0066394200,502,0x2F81,
0.0066418200,503,0x0000,
0.0066433600,503,0x5280,
0.0066449000,503,0x5280,
0.0066464400,503,0x5280,
0.0066479600,503,0x5280,
0.0066495000,503,0x5280,
0.0066510400,503,0x5280,
0.0066525800,503,0x5280,
0.0066551600,504,0x0001,
0.0066567000,504,0x4A01,
0.0066582400,504,0x4A01,
0.0066597800,504,0x4A01,
0.0066613200,504,0x4A01,
0.0066628400,504,0x4A01,
0.0066643800,504,0x4A01,
0.0066659200,504,0x4A01,
0.0066683200,505,0x0001,
0.0066698600,505,0x4A01,
0.0066714000,505,0x4A01,
0.0066729200,505,0x4A01,
0.0066744600,505,0x4A01,
