Time [s],Packet ID,MOSI,MISO
0.0000000400,0,0x0000,
0.0000059000,3,0x1000,
0.0000074400,3,0x2A80,
0.0000089800,3,0x2A80,
0.0000105000,3,0x2A80,
0.0000120400,3,0x2A80,
0.0000135800,3,0x2A80,
0.0000151200,3,0x2A80,
0.0000166600,3,0x2A80,
0.0000191400,4,0x0000,
0.0000206800,4,0xD500,
0.0000222200,4,0xD500,
0.0000237600,4,0xD500,
0.0000253000,4,0xD500,
0.0000268200,4,0xD500,
0.0000283600,4,0xD500,
0.0000299000,4,0xD500,
0.0000323000,5,0x0005,
0.0000338400,5,0x0005,
0.0000353800,5,0x0005,
0.0000369000,5,0x0005,
0.0000384400,5,0x0005,
0.0000399800,5,0x0005,
0.0000415200,5,0x0005,
0.0000430600,5,0x0005,
0.0000454600,6,0x0000,
0.0000469800,6,0x2A80,
0.0000485200,6,0x2A80,
0.0000500600,6,0x2A80,
0.0000516000,6,0x2A80,
0.0000531400,6,0x2A80,
0.0000546600,6,0x2A80,
0.0000562000,6,0x2A80,
0.0000586000,7,0x0000,
0.0000601400,7,0xAA80,
0.0000616800,7,0xAA80,
0.0000632200,7,0xAA80,
0.0000647400,7,0xAA80,
0.0000662800,7,0xAA80,
0.0000678200,7,0xAA80,
0.0000693600,7,0xAA80,
0.0000717600,8,0x0000,
0.0000733000,8,0x0000,
0.0000748200,8,0x0000,
0.0000763600,8,0x0000,
0.0000779000,8,0x0000,
0.0000794400,8,0x0000,
0.0000809800,8,0x0000,
0.0000825000,8,0x0002,
0.0000849000,9,0x0000,
0.0000864400,9,0x0000,
0.0000879800,9,0x0000,
0.0000895200,9,0x0000,
0.0000910600,9,0x0000,
0.0000925800,9,0x0000,
0.0000941200,9,0x0000,
0.0000956600,9,0x0000,
0.0000980600,10,0x0000,
0.0000996000,10,0x0000,
0.0001011400,10,0x0000,
0.0001026600,10,0x0000,
0.0001042000,10,0x0000,
0.0001057400,10,0x0000,
0.0001072800,10,0x0000,
0.0001088200,10,0x0000,
0.0001112200,11,0x0000,
0.0001127400,11,0x0000,
0.0001142800,11,0x0000,
0.0001158200,11,0x0000,
0.0001173600,11,0x0000,
0.0001189000,11,0x0000,
0.0001204200,11,0x0000,
0.0001219600,11,0x0000,
0.0001243600,12,0x0000,
0.0001259000,12,0x0000,
0.0001274400,12,0x0000,
0.0001289800,12,0x0000,
0.0001305000,12,0x0000,
0.0001320400,12,0x0000,
0.0001335800,12,0x0000,
0.0001351200,12,0x0000,
0.0001375200,13,0x0000,
0.0001390600,13,0x0000,
0.0001405800,13,0x0000,
0.0001421200,13,0x0000,
0.0001436600,13,0x0000,
0.0001452000,13,0x0000,
0.0001467400,13,0x0000,
0.0001482600,13,0x0000,
0.0001506600,14,0x0000,
0.0001522000,14,0x0000,
0.0001537400,14,0x0000,
0.0001552800,14,0x0000,
0.0001568200,14,0x0000,
0.0001583400,14,0x0000,
0.0001598800,14,0x0000,
0.0001614200,14,0x0000,
0.0001638200,15,0x0000,
0.0001653600,15,0x0000,
0.0001669000,15,0x0000,
0.0001684200,15,0x0000,
0.0001699600,15,0x0000,
0.0001715000,15,0x0000,
0.0001730400,15,0x0000,
0.0001745800,15,0x0000,
0.0001769800,16,0x0000,
0.0001785000,16,0x0000,
0.0001800400,16,0x0000,
0.0001815800,16,0x0000,
0.0001831200,16,0x0000,
0.0001846600,16,0x0000,
0.0001861800,16,0x0000,
0.0001877200,16,0x0000,
0.0001901200,17,0x0000,
0.0001916600,17,0x0000,
0.0001932000,17,0x0000,
0.0001947400,17,0x0000,
0.0001962600,17,0x0000,
0.0001978000,17,0x0000,
0.0001993400,17,0x0000,
0.0002008800,17,0x0000,
0.0002032800,18,0x0000,
0.0002048200,18,0x0000,
0.0002063400,18,0x0000,
0.0002078800,18,0x0000,
0.0002094200,18,0x0000,
0.0002109600,18,0x0000,
0.0002125000,18,0x0000,
0.0002140400,18,0x0000,
0.0002164400,19,0x0000,
0.0002179600,19,0x0000,
0.0002195000,19,0x0000,
0.0002210400,19,0x0000,
0.0002225800,19,0x0000,
0.0002241200,19,0x0000,
0.0002256400,19,0x0000,
0.0002271800,19,0x0000,
0.0002295800,20,0x0000,
0.0002311200,20,0x0000,
0.0002326600,20,0x0000,
0.0002342000,20,0x0000,
0.0002357200,20,0x0000,
0.0002372600,20,0x0000,
0.0002388000,20,0x0000,
0.0002403400,20,0x0000,
0.0002427400,21,0x0000,
0.0002442600,21,0x0000,
0.0002458000,21,0x0000,
0.0002473400,21,0x0000,
0.0002488800,21,0x0000,
0.0002504200,21,0x0000,
0.0002519600,21,0x0000,
0.0002534800,21,0x0000,
0.0002558800,22,0x0000,
0.0002574200,22,0x0000,
0.0002589600,22,0x0000,
0.0002605000,22,0x0000,
0.0002620400,22,0x0000,
0.0002635600,22,0x0000,
0.0002651000,22,0x0000,
0.0002666400,22,0x0000,
0.0002690400,23,0x0000,
0.0002705800,23,0x0000,
0.0002721200,23,0x0000,
0.0002736400,23,0x0000,
0.0002751800,23,0x0000,
0.0002767200,23,0x0000,
0.0002782600,23,0x0000,
0.0002798000,23,0x0000,
0.0002822000,24,0x0000,
0.0002837200,24,0x0000,
0.0002852600,24,0x0000,
0.0002868000,24,0x0000,
0.0002883400,24,0x0000,
0.0002898800,24,0x0000,
0.0002914000,24,0x0000,
0.0002929400,24,0x0000,
0.0002955400,25,0x0000,
0.0002970800,25,0x0000,
0.0002986000,25,0x0000,
0.0003001400,25,0x0000,
0.0003016800,25,0x0000,
0.0003032200,25,0x0000,
0.0003047600,25,0x0000,
0.0003062800,25,0x0000,
0.0003086800,26,0x0000,
0.0003102200,26,0x0000,
0.0003117600,26,0x0000,
0.0003133000,26,0x0000,
0.0003148400,26,0x0000,
0.0003163600,26,0x0000,
0.0003179000,26,0x0000,
0.0003194400,26,0x0000,
0.0003218400,27,0x0000,
0.0003233800,27,0x0000,
0.0003249200,27,0x0000,
0.0003264400,27,0x0000,
0.0003279800,27,0x0000,
0.0003295200,27,0x0000,
0.0003310600,27,0x0000,
0.0003326000,27,0x0000,
0.0003350000,28,0x0000,
0.0003365200,28,0x0000,
0.0003380600,28,0x0000,
0.0003396000,28,0x0000,
0.0003411400,28,0x0000,
0.0003426800,28,0x0000,
0.0003442000,28,0x0000,
0.0003457400,28,0x0000,
0.0003481400,29,0x0000,
0.0003496800,29,0x0000,
0.0003512200,29,0x0000,
0.0003527600,29,0x0000,
0.0003542800,29,0x0000,
0.0003558200,29,0x0000,
0.0003573600,29,0x0000,
0.0003589000,29,0x0000,
0.0003613000,30,0x0000,
0.0003628400,30,0x0000,
0.0003643600,30,0x0000,
0.0003659000,30,0x0000,
0.0003674400,30,0x0000,
0.0003689800,30,0x0000,
0.0003705200,30,0x0000,
0.0003720400,30,0x0000,
0.0003744400,31,0x0000,
0.0003759800,31,0x0000,
0.0003775200,31,0x0000,
0.0003790600,31,0x0000,
0.0003806000,31,0x0000,
0.0003821200,31,0x0000,
0.0003836600,31,0x0000,
0.0003852000,31,0x0000,
0.0003876000,32,0x0000,
0.0003891400,32,0x0000,
0.0003906800,32,0x0000,
0.0003922000,32,0x0000,
0.0003937400,32,0x0000,
0.0003952800,32,0x0000,
0.0003968200,32,0x0000,
0.0003983600,32,0x0000,
