Time [s],Packet ID,MOSI,MISO
0.0000055000,0,0x1000,
0.0000070200,0,0x2A80,
0.0000085600,0,0x2A80,
0.0000101000,0,0x2A80,
0.0000116400,0,0x2A80,
0.0000131800,0,0x2A80,
0.0000147000,0,0x2A80,
0.0000162400,0,0x2A80,
0.0000187400,1,0x0000,
0.0000202800,1,0xD500,
0.0000218000,1,0xD500,
0.0000233400,1,0xD500,
0.0000248800,1,0xD500,
0.0000264200,1,0xD500,
0.0000279600,1,0xD500,
0.0000295000,1,0xD500,
0.0000319000,2,0x0008,
0.0000334200,2,0x6108,
0.0000349600,2,0x6108,
0.0000365000,2,0x6108,
0.0000380400,2,0x6108,
0.0000395800,2,0x6108,
0.0000411000,2,0x6108,
0.0000426400,2,0x6108,
0.0000450400,3,0x0000,
0.0000465800,3,0x2A80,
0.0000481200,3,0x2A80,
0.0000496600,3,0x2A80,
0.0000511800,3,0x2A80,
0.0000527200,3,0x2A80,
0.0000542600,3,0x2A80,
0.0000558000,3,0x2A80,
0.0000582000,4,0x0000,
0.0000597400,4,0xAA80,
0.0000612600,4,0xAA80,
0.0000628000,4,0xAA80,
0.0000643400,4,0xAA80,
0.0000658800,4,0xAA80,
0.0000674200,4,0xAA80,
0.0000689400,4,0xAA80,
0.0000713400,5,0x0000,
0.0000728800,5,0x0000,
0.0000744200,5,0x0000,
0.0000759600,5,0x0000,
0.0000775000,5,0x0000,
0.0000790200,5,0x0000,
0.0000805600,5,0x0000,
0.0000821000,5,0x000F,
0.0000845000,6,0x0000,
0.0000860400,6,0x0000,
0.0000875800,6,0x0000,
0.0000891000,6,0x0000,
0.0000906400,6,0x0000,
0.0000921800,6,0x0000,
0.0000937200,6,0x0000,
0.0000952600,6,0x0000,
0.0000976600,7,0x0000,
0.0000991800,7,0x0000,
0.0001007200,7,0x0000,
0.0001022600,7,0x0000,
0.0001038000,7,0x0000,
0.0001053400,7,0x0000,
0.0001068600,7,0x0000,
0.0001084000,7,0x0000,
0.0001108000,8,0x0000,
0.0001123400,8,0x0000,
0.0001138800,8,0x0000,
0.0001154200,8,0x0000,
0.0001169400,8,0x0000,
0.0001184800,8,0x0000,
0.0001200200,8,0x0000,
0.0001215600,8,0x0000,
0.0001239600,9,0x0000,
0.0001255000,9,0x0000,
0.0001270200,9,0x0000,
0.0001285600,9,0x0000,
0.0001301000,9,0x0000,
0.0001316400,9,0x0000,
0.0001331800,9,0x0000,
0.0001347000,9,0x0000,
0.0001371000,10,0x0000,
0.0001386400,10,0x0000,
0.0001401800,10,0x0000,
0.0001417200,10,0x0000,
0.0001432600,10,0x0000,
0.0001447800,10,0x0000,
0.0001463200,10,0x0000,
0.0001478600,10,0x0000,
0.0001502600,11,0x0000,
0.0001518000,11,0x0000,
0.0001533400,11,0x0000,
0.0001548600,11,0x0000,
0.0001564000,11,0x0000,
0.0001579400,11,0x0000,
0.0001594800,11,0x0000,
0.0001610200,11,0x0000,
0.0001634200,12,0x0000,
0.0001649400,12,0x0000,
0.0001664800,12,0x0000,
0.0001680200,12,0x0000,
0.0001695600,12,0x0000,
0.0001711000,12,0x0000,
0.0001726200,12,0x0000,
0.0001741600,12,0x0000,
0.0001765600,13,0x0000,
0.0001781000,13,0x0000,
0.0001796400,13,0x0000,
0.0001811800,13,0x0000,
0.0001827000,13,0x0000,
0.0001842400,13,0x0000,
0.0001857800,13,0x0000,
0.0001873200,13,0x0000,
0.0001897200,14,0x0000,
0.0001912600,14,0x0000,
0.0001927800,14,0x0000,
0.0001943200,14,0x0000,
0.0001958600,14,0x0000,
0.0001974000,14,0x0000,
0.0001989400,14,0x0000,
0.0002004600,14,0x0000,
0.0002028600,15,0x0000,
0.0002044000,15,0x0000,
0.0002059400,15,0x0000,
0.0002074800,15,0x0000,
0.0002090200,15,0x0000,
0.0002105400,15,0x0000,
0.0002120800,15,0x0000,
0.0002136200,15,0x0000,
0.0002160200,16,0x0000,
0.0002175600,16,0x0000,
0.0002191000,16,0x0000,
0.0002206200,16,0x0000,
0.0002221600,16,0x0000,
0.0002237000,16,0x0000,
0.0002252400,16,0x0000,
0.0002267800,16,0x0000,
0.0002291800,17,0x0000,
0.0002307000,17,0x0000,
0.0002322400,17,0x0000,
0.0002337800,17,0x0000,
0.0002353200,17,0x0000,
0.0002368600,17,0x0000,
0.0002383800,17,0x0000,
0.0002399200,17,0x0000,
0.0002423200,18,0x0000,
0.0002438600,18,0x0000,
0.0002454000,18,0x0000,
0.0002469400,18,0x0000,
0.0002484800,18,0x0000,
0.0002500000,18,0x0000,
0.0002515400,18,0x0000,
0.0002530800,18,0x0000,
0.0002554800,19,0x0000,
0.0002570200,19,0x0000,
0.0002585400,19,0x0000,
0.0002600800,19,0x0000,
0.0002616200,19,0x0000,
0.0002631600,19,0x0000,
0.0002647000,19,0x0000,
0.0002662400,19,0x0000,
0.0002686400,20,0x0000,
0.0002701600,20,0x0000,
0.0002717000,20,0x0000,
0.0002732400,20,0x0000,
0.0002747800,20,0x0000,
0.0002763000,20,0x0000,
0.0002778400,20,0x0002,
0.0002793800,20,0x4600,
0.0002817800,21,0x0000,
0.0002833200,21,0x0000,
0.0002848600,21,0x0000,
0.0002864000,21,0x0000,
0.0002879200,21,0x0000,
0.0002894600,21,0x0000,
0.0002910000,21,0x0000,
0.0002925400,21,0x0000,
0.0002951200,22,0x0000,
0.0002966600,22,0x0000,
0.0002982000,22,0x0000,
0.0002997400,22,0x0000,
0.0003012800,22,0x0000,
0.0003028000,22,0x0000,
0.0003043400,22,0x0000,
0.0003058800,22,0x0000,
0.0003082800,23,0x0000,
0.0003098200,23,0x0000,
0.0003113600,23,0x0000,
0.0003128800,23,0x0000,
0.0003144200,23,0x0000,
0.0003159600,23,0x0000,
0.0003175000,23,0x0000,
0.0003190400,23,0x0000,
0.0003214400,24,0x0000,
0.0003229600,24,0x0000,
0.0003245000,24,0x0000,
0.0003260400,24,0x0000,
0.0003275800,24,0x0000,
0.0003291200,24,0x0000,
0.0003306400,24,0x0000,
0.0003321800,24,0x0000,
0.0003345800,25,0x0000,
0.0003361200,25,0x0000,
0.0003376600,25,0x0000,
0.0003392000,25,0x0000,
0.0003407200,25,0x0000,
0.0003422600,25,0x0000,
0.0003438000,25,0x0000,
0.0003453400,25,0x0000,
0.0003477400,26,0x0000,
0.0003492800,26,0x0000,
0.0003508000,26,0x0000,
0.0003523400,26,0x0000,
0.0003538800,26,0x0000,
0.0003554200,26,0x0000,
0.0003569600,26,0x0000,
0.0003584800,26,0x0000,
0.0003608800,27,0x0000,
0.0003624200,27,0x0000,
0.0003639600,27,0x0000,
0.0003655000,27,0x0000,
0.0003670400,27,0x0000,
0.0003685600,27,0x0000,
0.0003701000,27,0x0000,
0.0003716400,27,0x0000,
0.0003740400,28,0x0000,
0.0003755800,28,0x0000,
0.0003771200,28,0x0000,
0.0003786400,28,0x0000,
0.0003801800,28,0x0000,
0.0003817200,28,0x0000,
0.0003832600,28,0x0000,
0.0003848000,28,0x0000,
0.0003872000,29,0x0000,
0.0003887200,29,0x0000,
0.0003902600,29,0x0000,
0.0003918000,29,0x0000,
0.0003933400,29,0x0000,
0.0003948800,29,0x0000,
0.0003964000,29,0x0000,
0.0003979400,29,0x0000,
0.0004003400,30,0x0000,
0.0004018800,30,0x0000,
0.0004034200,30,0x0000,
0.0004049600,30,0x0000,
0.0004064800,30,0x0000,
0.0004080200,30,0x0000,
0.0004095600,30,0x0000,
0.0004111000,30,0x0000,
0.0004135000,31,0x0000,
0.0004150400,31,0x0000,
0.0004165600,31,0x0000,
0.0004181000,31,0x0000,
0.0004196400,31,0x0000,
0.0004211800,31,0x0000,
0.0004227200,31,0x0000,
0.0004242400,31,0x0000,
0.0004266400,32,0x0000,
0.0004281800,32,0x0000,
0.0004297200,32,0x0000,
0.0004312600,32,0x0000,
0.0004328000,32,0x0000,
0.0004343200,32,0x0000,
0.0004358600,32,0x0000,
0.0004374000,32,0x0000,
0.0004398000,33,0x0000,
0.0004413400,33,0x0000,
0.0004428800,33,0x0000,
0.0004444000,33,0x0000,
0.0004459400,33,0x0000,
0.0004474800,33,0x0000,
0.0004490200,33,0x0000,
0.0004505600,33,0x0000,
0.0004529600,34,0x0000,
0.0004544800,34,0x0000,
0.0004560200,34,0x0000,
0.0004575600,34,0x0000,
0.0004591000,34,0x0000,
0.0004606400,34,0x0000,
0.0004621600,34,0x0000,
0.0004637000,34,0x0000,
0.0004661000,35,0x0000,
0.0004676400,35,0x0000,
0.0004691800,35,0x0000,
0.0004707200,35,0x0000,
0.0004722400,35,0x0000,
0.0004737800,35,0x0000,
0.0004753200,35,0x0000,
